Freq.	V(vo)
Step Information: Run=1  (Run: 1/30)
1.00000000000000e+000	(-4.33044145852715e-005dB,-1.07250416255357e-003°)
1.02329299228075e+000	(-4.33043144750451e-005dB,-1.09748599374180e-003°)
1.04712854805090e+000	(-4.33042096280186e-005dB,-1.12304972653968e-003°)
1.07151930523761e+000	(-4.33040998455394e-005dB,-1.14920891517351e-003°)
1.09647819614318e+000	(-4.33039848730240e-005dB,-1.17597742957564e-003°)
1.12201845430196e+000	(-4.33038644954262e-005dB,-1.20336946279332e-003°)
1.14815362149688e+000	(-4.33037384417687e-005dB,-1.23139953841804e-003°)
1.17489755493953e+000	(-4.33036064449313e-005dB,-1.26008251838508e-003°)
1.20226443461741e+000	(-4.33034682291151e-005dB,-1.28943361078487e-003°)
1.23026877081238e+000	(-4.33033235214141e-005dB,-1.31946837795045e-003°)
1.25892541179417e+000	(-4.33031719659895e-005dB,-1.35020274472431e-003°)
1.28824955169313e+000	(-4.33030132889711e-005dB,-1.38165300686439e-003°)
1.31825673855641e+000	(-4.33028471268056e-005dB,-1.41383583971970e-003°)
1.34896288259165e+000	(-4.33026731352264e-005dB,-1.44676830705704e-003°)
1.38038426460288e+000	(-4.33024909439299e-005dB,-1.48046787010174e-003°)
1.41253754462275e+000	(-4.33023001469321e-005dB,-1.51495239681318e-003°)
1.44543977074593e+000	(-4.33021003922518e-005dB,-1.55024017134342e-003°)
1.47910838816821e+000	(-4.33018911736147e-005dB,-1.58634990373370e-003°)
1.51356124843621e+000	(-4.33016721496469e-005dB,-1.62330073984328e-003°)
1.54881661891248e+000	(-4.33014427658576e-005dB,-1.66111227149983e-003°)
1.58489319246111e+000	(-4.33012025767251e-005dB,-1.69980454687436e-003°)
1.62181009735893e+000	(-4.33009510779037e-005dB,-1.73939808112553e-003°)
1.65958690743756e+000	(-4.33006877052591e-005dB,-1.77991386726713e-003°)
1.69824365246174e+000	(-4.33004119602313e-005dB,-1.82137338730944e-003°)
1.73780082874937e+000	(-4.33001232314339e-005dB,-1.86379862363498e-003°)
1.77827941003892e+000	(-4.32998208361195e-005dB,-1.90721207067025e-003°)
1.81970085860998e+000	(-4.32995042091893e-005dB,-1.95163674679479e-003°)
1.86208713666287e+000	(-4.32991726717536e-005dB,-1.99709620656875e-003°)
1.90546071796325e+000	(-4.32988255073134e-005dB,-2.04361455319057e-003°)
1.94984459975804e+000	(-4.32984619675469e-005dB,-2.09121645130834e-003°)
1.99526231496888e+000	(-4.32980812713449e-005dB,-2.13992714008054e-003°)
2.04173794466953e+000	(-4.32976826838863e-005dB,-2.18977244655766e-003°)
2.08929613085404e+000	(-4.32972653054490e-005dB,-2.24077879938549e-003°)
2.13796208950223e+000	(-4.32968282527046e-005dB,-2.29297324280229e-003°)
2.18776162394955e+000	(-4.32963705863936e-005dB,-2.34638345099697e-003°)
2.23872113856834e+000	(-4.32958913653277e-005dB,-2.40103774277062e-003°)
2.29086765276777e+000	(-4.32953895557426e-005dB,-2.45696509655228e-003°)
2.34422881531992e+000	(-4.32948640949442e-005dB,-2.51419516576420e-003°)
2.39883291901949e+000	(-4.32943138681644e-005dB,-2.57275829455315e-003°)
2.45470891568503e+000	(-4.32937376883102e-005dB,-2.63268553385845e-003°)
2.51188643150958e+000	(-4.32931343663599e-005dB,-2.69400865790495e-003°)
2.57039578276886e+000	(-4.32925026390381e-005dB,-2.75676018102324e-003°)
2.63026799189538e+000	(-4.32918411032415e-005dB,-2.82097337489976e-003°)
2.69153480392691e+000	(-4.32911484156553e-005dB,-2.88668228622746e-003°)
2.75422870333816e+000	(-4.32904230892789e-005dB,-2.95392175473766e-003°)
2.81838293126445e+000	(-4.32896635618943e-005dB,-3.02272743169062e-003°)
2.88403150312660e+000	(-4.32888682462104e-005dB,-3.09313579876802e-003°)
2.95120922666638e+000	(-4.32880354440382e-005dB,-3.16518418742061e-003°)
3.01995172040201e+000	(-4.32871633829349e-005dB,-3.23891079866147e-003°)
3.09029543251359e+000	(-4.32862502219902e-005dB,-3.31435472331865e-003°)
3.16227766016837e+000	(-4.32852940450760e-005dB,-3.39155596275980e-003°)
3.23593656929628e+000	(-4.32842928087721e-005dB,-3.47055545010597e-003°)
3.31131121482591e+000	(-4.32832443626177e-005dB,-3.55139507193924e-003°)
3.38844156139202e+000	(-4.32821465088994e-005dB,-3.63411769049618e-003°)
3.46736850452531e+000	(-4.32809969476849e-005dB,-3.71876716640608e-003°)
3.54813389233575e+000	(-4.32797931601382e-005dB,-3.80538838195072e-003°)
3.63078054770101e+000	(-4.32785326727471e-005dB,-3.89402726484438e-003°)
3.71535229097172e+000	(-4.32772127815239e-005dB,-3.98473081260328e-003°)
3.80189396320560e+000	(-4.32758306532605e-005dB,-4.07754711745262e-003°)
3.89045144994280e+000	(-4.32743834229257e-005dB,-4.17252539183106e-003°)
3.98107170553496e+000	(-4.32728679487250e-005dB,-4.26971599448038e-003°)
4.07380277804112e+000	(-4.32712810811493e-005dB,-4.36917045715420e-003°)
4.16869383470335e+000	(-4.32696194228559e-005dB,-4.47094151192677e-003°)
4.26579518801592e+000	(-4.32678794627112e-005dB,-4.57508311916908e-003°)
4.36515832240165e+000	(-4.32660574687493e-005dB,-4.68165049614324e-003°)
4.46683592150962e+000	(-4.32641496492157e-005dB,-4.79070014629370e-003°)
4.57088189614874e+000	(-4.32621518844831e-005dB,-4.90228988919420e-003°)
4.67735141287197e+000	(-4.32600599681342e-005dB,-5.01647889121185e-003°)
4.78630092322637e+000	(-4.32578694912418e-005dB,-5.13332769687983e-003°)
4.89778819368445e+000	(-4.32555757584724e-005dB,-5.25289826098707e-003°)
5.01187233627271e+000	(-4.32531739308065e-005dB,-5.37525398144173e-003°)
5.12861383991364e+000	(-4.32506588914973e-005dB,-5.50045973287888e-003°)
5.24807460249771e+000	(-4.32480253415392e-005dB,-5.62858190105611e-003°)
5.37031796370252e+000	(-4.32452677003412e-005dB,-5.75968841805640e-003°)
5.49540873857623e+000	(-4.32423800411175e-005dB,-5.89384879830435e-003°)
5.62341325190348e+000	(-4.32393563367916e-005dB,-6.03113417542545e-003°)
5.75439937337156e+000	(-4.32361900993360e-005dB,-6.17161733995730e-003°)
5.88843655355588e+000	(-4.32328746661793e-005dB,-6.31537277795362e-003°)
6.02559586074356e+000	(-4.32294029600871e-005dB,-6.46247671046735e-003°)
6.16595001861481e+000	(-4.32257676588848e-005dB,-6.61300713397020e-003°)
6.30957344480192e+000	(-4.32219610016265e-005dB,-6.76704386170758e-003°)
6.45654229034654e+000	(-4.32179749612107e-005dB,-6.92466856601242e-003°)
6.60693448007594e+000	(-4.32138010534423e-005dB,-7.08596482161471e-003°)
6.76082975391980e+000	(-4.32094304228584e-005dB,-7.25101814995093e-003°)
6.91830970918935e+000	(-4.32048538407995e-005dB,-7.41991606450686e-003°)
7.07945784384136e+000	(-4.32000615723319e-005dB,-7.59274811722518e-003°)
7.24435960074988e+000	(-4.31950434553225e-005dB,-7.76960594597757e-003°)
7.41310241300916e+000	(-4.31897888242568e-005dB,-7.95058332315983e-003°)
7.58577575029182e+000	(-4.31842865314543e-005dB,-8.13577620541159e-003°)
7.76247116628690e+000	(-4.31785249615335e-005dB,-8.32528278448966e-003°)
7.94328234724279e+000	(-4.31724918096152e-005dB,-8.51920353933170e-003°)
8.12830516164097e+000	(-4.31661743590505e-005dB,-8.71764128933485e-003°)
8.31763771102669e+000	(-4.31595591805489e-005dB,-8.92070124887000e-003°)
8.51138038202374e+000	(-4.31526322363266e-005dB,-9.12849108306742e-003°)
8.70963589956078e+000	(-4.31453788126026e-005dB,-9.34112096490237e-003°)
8.91250938133743e+000	(-4.31377835601013e-005dB,-9.55870363361214e-003°)
9.12010839355907e+000	(-4.31298303725462e-005dB,-9.78135445447442e-003°)
9.33254300796988e+000	(-4.31215023625520e-005dB,-1.00091914799670e-002°)
9.54992586021433e+000	(-4.31127818413730e-005dB,-1.02423355123734e-002°)
9.77237220955808e+000	(-4.31036503246900e-005dB,-1.04809101678217e-002°)
9.99999999999997e+000	(-4.30940884853573e-005dB,-1.07250419418383e-002°)
1.02329299228075e+001	(-4.30840759856090e-005dB,-1.09748602764111e-002°)
1.04712854805090e+001	(-4.30735916323171e-005dB,-1.12304976286245e-002°)
1.07151930523760e+001	(-4.30626131600158e-005dB,-1.14920895408907e-002°)
1.09647819614318e+001	(-4.30511173119063e-005dB,-1.17597747128157e-002°)
1.12201845430196e+001	(-4.30390796199886e-005dB,-1.20336950747396e-002°)
1.14815362149688e+001	(-4.30264746538593e-005dB,-1.23139958629925e-002°)
1.17489755493953e+001	(-4.30132756166566e-005dB,-1.26008256968993e-002°)
1.20226443461741e+001	(-4.29994545128540e-005dB,-1.28943366575813e-002°)
1.23026877081238e+001	(-4.29849820672562e-005dB,-1.31946843685921e-002°)
1.25892541179416e+001	(-4.29698275417765e-005dB,-1.35020280784329e-002°)
1.28824955169313e+001	(-4.29539588299410e-005dB,-1.38165307449864e-002°)
1.31825673855640e+001	(-4.29373422370211e-005dB,-1.41383591219229e-002°)
1.34896288259165e+001	(-4.29199425311429e-005dB,-1.44676838471162e-002°)
1.38038426460288e+001	(-4.29017227783867e-005dB,-1.48046795331161e-002°)
1.41253754462275e+001	(-4.28826443678597e-005dB,-1.51495248597335e-002°)
1.44543977074592e+001	(-4.28626668332944e-005dB,-1.55024026687813e-002°)
1.47910838816820e+001	(-4.28417477961531e-005dB,-1.58635000610179e-002°)
1.51356124843620e+001	(-4.28198428209782e-005dB,-1.62330084953519e-002°)
1.54881661891248e+001	(-4.27969055426841e-005dB,-1.66111238903621e-002°)
1.58489319246111e+001	(-4.27728872567161e-005dB,-1.69980467281703e-002°)
1.62181009735892e+001	(-4.27477370241627e-005dB,-1.73939821607481e-002°)
1.65958690743755e+001	(-4.27214014991404e-005dB,-1.77991401186885e-002°)
1.69824365246174e+001	(-4.26938248043944e-005dB,-1.82137354225170e-002°)
1.73780082874937e+001	(-4.26649484715108e-005dB,-1.86379878965953e-002°)
1.77827941003892e+001	(-4.26347112412995e-005dB,-1.90721224856752e-002°)
1.81970085860998e+001	(-4.26030490030416e-005dB,-1.95163693741716e-002°)
1.86208713666286e+001	(-4.25698945148334e-005dB,-1.99709641082104e-002°)
1.90546071796324e+001	(-4.25351775173772e-005dB,-2.04361477205211e-002°)
1.94984459975804e+001	(-4.24988243569282e-005dB,-2.09121668582386e-002°)
1.99526231496887e+001	(-4.24607579361133e-005dB,-2.13992739136813e-002°)
2.04173794466952e+001	(-4.24208975229940e-005dB,-2.18977271581771e-002°)
2.08929613085403e+001	(-4.23791585090190e-005dB,-2.24077908790040e-002°)
2.13796208950222e+001	(-4.23354524331326e-005dB,-2.29297355195234e-002°)
2.18776162394954e+001	(-4.22896864918946e-005dB,-2.34638378225771e-002°)
2.23872113856833e+001	(-4.22417637313827e-005dB,-2.40103809772236e-002°)
2.29086765276776e+001	(-4.21915824097688e-005dB,-2.45696547688935e-002°)
2.34422881531991e+001	(-4.21390361091827e-005dB,-2.51419557330420e-002°)
2.39883291901948e+001	(-4.20840134059103e-005dB,-2.57275873123813e-002°)
2.45470891568502e+001	(-4.20263975299850e-005dB,-2.63268600177763e-002°)
2.51188643150957e+001	(-4.19660663343298e-005dB,-2.69400915928857e-002°)
2.57039578276885e+001	(-4.19028918029481e-005dB,-2.75676071826427e-002°)
2.63026799189537e+001	(-4.18367399583488e-005dB,-2.82097395056558e-002°)
2.69153480392690e+001	(-4.17674704632775e-005dB,-2.88668290306295e-002°)
2.75422870333815e+001	(-4.16949363854204e-005dB,-2.95392241568918e-002°)
2.81838293126444e+001	(-4.16189838946046e-005dB,-3.02272813991303e-002°)
2.88403150312659e+001	(-4.15394518780310e-005dB,-3.09313655764279e-002°)
2.95120922666637e+001	(-4.14561716249379e-005dB,-3.16518500057067e-002°)
3.01995172040200e+001	(-4.13689664996942e-005dB,-3.23891166996738e-002°)
3.09029543251358e+001	(-4.12776515281017e-005dB,-3.31435565693821e-002°)
3.16227766016837e+001	(-4.11820330126282e-005dB,-3.39155696315078e-002°)
3.23593656929627e+001	(-4.10819081447470e-005dB,-3.47055652204567e-002°)
3.31131121482590e+001	(-4.09770645285587e-005dB,-3.55139622054143e-002°)
3.38844156139201e+001	(-4.08672798124182e-005dB,-3.63411892124482e-002°)
3.46736850452530e+001	(-4.07523210650133e-005dB,-3.71876848517877e-002°)
3.54813389233574e+001	(-4.06319444744957e-005dB,-3.80538979503992e-002°)
3.63078054770100e+001	(-4.05058947409535e-005dB,-3.89402877899755e-002°)
3.71535229097171e+001	(-4.03739044814212e-005dB,-3.98473243504741e-002°)
3.80189396320559e+001	(-4.02356936744271e-005dB,-4.07754885593271e-002°)
3.89045144994279e+001	(-4.00909692009741e-005dB,-4.17252725464575e-002°)
3.98107170553495e+001	(-3.99394240817565e-005dB,-4.26971799052364e-002°)
4.07380277804111e+001	(-3.97807368667414e-005dB,-4.36917259595205e-002°)
4.16869383470333e+001	(-3.96145709591759e-005dB,-4.47094380369113e-002°)
4.26579518801591e+001	(-3.94405738865564e-005dB,-4.57508557483792e-002°)
4.36515832240164e+001	(-3.92583766043856e-005dB,-4.68165312744057e-002°)
4.46683592150961e+001	(-3.90675926437087e-005dB,-4.79070296577879e-002°)
4.57088189614873e+001	(-3.88678172798641e-005dB,-4.90229291032697e-002°)
4.67735141287196e+001	(-3.86586268265996e-005dB,-5.01648212841508e-002°)
4.78630092322636e+001	(-3.84395775087745e-005dB,-5.13333116560414e-002°)
4.89778819368444e+001	(-3.82102047468336e-005dB,-5.25290197779275e-002°)
5.01187233627270e+001	(-3.79700219764723e-005dB,-5.37525796407155e-002°)
5.12861383991362e+001	(-3.77185197431390e-005dB,-5.50046400034343e-002°)
5.24807460249770e+001	(-3.74551645757046e-005dB,-5.62858647372699e-002°)
5.37031796370250e+001	(-3.71793978688133e-005dB,-5.75969331776173e-002°)
5.49540873857622e+001	(-3.68906346958018e-005dB,-5.89385404843353e-002°)
5.62341325190346e+001	(-3.65882625386875e-005dB,-6.03113980103958e-002°)
5.75439937337154e+001	(-3.62716400528741e-005dB,-6.17162336791256e-002°)
5.88843655355586e+001	(-3.59400955965609e-005dB,-6.31537923702368e-002°)
6.02559586074355e+001	(-3.55929259231265e-005dB,-6.46248363148548e-002°)
6.16595001861479e+001	(-3.52293946767905e-005dB,-6.61301454997505e-002°)
6.30957344480190e+001	(-3.48487307831641e-005dB,-6.76705180809955e-002°)
6.45654229034652e+001	(-3.44501267327634e-005dB,-6.92467708072554e-002°)
6.60693448007593e+001	(-3.40327370544963e-005dB,-7.08597394529494e-002°)
6.76082975391978e+001	(-3.35956764805677e-005dB,-7.25102792615059e-002°)
6.91830970918933e+001	(-3.31380178519811e-005dB,-7.41992653989473e-002°)
7.07945784384134e+001	(-3.26587904705287e-005dB,-7.59275934180493e-002°)
7.24435960074986e+001	(-3.21569778114334e-005dB,-7.76961797333169e-002°)
7.41310241300914e+001	(-3.16315154944349e-005dB,-7.95059621070341e-002°)
7.58577575029180e+001	(-3.10812889260430e-005dB,-8.13579001466401e-002°)
7.76247116628688e+001	(-3.05051309977255e-005dB,-8.32529758137040e-002°)
7.94328234724277e+001	(-2.99018196413811e-005dB,-8.51921939447612e-002°)
8.12830516164095e+001	(-2.92700751148038e-005dB,-8.71765827842934e-002°)
8.31763771102667e+001	(-2.86085574491603e-005dB,-8.92071945301339e-002°)
8.51138038202372e+001	(-2.79158634721692e-005dB,-9.12851058915892e-002°)
8.70963589956076e+001	(-2.71905238640726e-005dB,-9.34114186605724e-002°)
8.91250938133741e+001	(-2.64310001075399e-005dB,-9.55872602960550e-002°)
9.12010839355905e+001	(-2.56356812013182e-005dB,-9.78137845221459e-002°)
9.33254300796986e+001	(-2.48028800894138e-005dB,-1.00092171940116e-001°)
9.54992586021431e+001	(-2.39308303709045e-005dB,-1.02423630654699e-001°)
9.77237220955805e+001	(-2.30176823193008e-005dB,-1.04809396914992e-001°)
9.99999999999995e+001	(-2.20614989626726e-005dB,-1.07250735770310e-001°)
1.02329299228075e+002	(-2.10602522129690e-005dB,-1.09748941741334e-001°)
1.04712854805089e+002	(-2.00118182798195e-005dB,-1.12305339506918e-001°)
1.07151930523760e+002	(-1.89139732531083e-005dB,-1.14921284606907e-001°)
1.09647819614318e+002	(-1.77643885534522e-005dB,-1.17598164161367e-001°)
1.12201845430196e+002	(-1.65606257337031e-005dB,-1.20337397606579e-001°)
1.14815362149688e+002	(-1.53001314434428e-005dB,-1.23140437448217e-001°)
1.17489755493952e+002	(-1.39802320993793e-005dB,-1.26008770032094e-001°)
1.20226443461741e+002	(-1.25981279964564e-005dB,-1.28943916332896e-001°)
1.23026877081237e+002	(-1.11508875646043e-005dB,-1.31947432761323e-001°)
1.25892541179416e+002	(-9.63544099484746e-006dB,-1.35020911990072e-001°)
1.28824955169313e+002	(-8.04857387605351e-006dB,-1.38165983799096e-001°)
1.31825673855640e+002	(-6.38692029554935e-006dB,-1.41384315940595e-001°)
1.34896288259165e+002	(-4.64695571412390e-006dB,-1.44677615024209e-001°)
1.38038426460288e+002	(-2.82498944955571e-006dB,-1.48047627422870e-001°)
1.41253754462275e+002	(-9.17156926819632e-007dB,-1.51496140199814e-001°)
1.44543977074592e+002	(1.08058858371368e-006dB,-1.55024982057243e-001°)
1.47910838816820e+002	(3.17248451249902e-006dB,-1.58636024307145e-001°)
1.51356124843620e+002	(5.36296794970884e-006dB,-1.62331181864793e-001°)
1.54881661891247e+002	(7.65668520097676e-006dB,-1.66112414265452e-001°)
1.58489319246110e+002	(1.00585014211780e-005dB,-1.69981726704856e-001°)
1.62181009735892e+002	(1.25735111189162e-005dB,-1.73941171103991e-001°)
1.65958690743755e+002	(1.52070488730731e-005dB,-1.77992847198769e-001°)
1.69824365246173e+002	(1.79647006876457e-005dB,-1.82138903655184e-001°)
1.73780082874936e+002	(2.08523158132105e-005dB,-1.86381539210531e-001°)
1.77827941003891e+002	(2.38760191179362e-005dB,-1.90723003841327e-001°)
1.81970085860997e+002	(2.70422241797842e-005dB,-1.95165599958545e-001°)
1.86208713666286e+002	(3.03576467469413e-005dB,-1.99711683630813e-001°)
1.90546071796323e+002	(3.38293191971379e-005dB,-2.04363665836232e-001°)
1.94984459975803e+002	(3.74646052571653e-005dB,-2.09124013743502e-001°)
1.99526231496887e+002	(4.12712155573137e-005dB,-2.13995252023038e-001°)
2.04173794466952e+002	(4.52572243312220e-005dB,-2.18979964188785e-001°)
2.08929613085403e+002	(4.94310861174347e-005dB,-2.24080793971459e-001°)
2.13796208950222e+002	(5.38016540711343e-005dB,-2.29300446723974e-001°)
2.18776162394954e+002	(5.83781984549688e-005dB,-2.34641690859789e-001°)
2.23872113856832e+002	(6.31704264449223e-005dB,-2.40107359324986e-001°)
2.29086765276776e+002	(6.81885026899629e-005dB,-2.45700351104855e-001°)
2.34422881531991e+002	(7.34430707835849e-005dB,-2.51423632765826e-001°)
2.39883291901947e+002	(7.89452760348696e-005dB,-2.57280240033573e-001°)
2.45470891568501e+002	(8.47067889199298e-005dB,-2.63273279408166e-001°)
2.51188643150956e+002	(9.07398298925818e-005dB,-2.69405929817143e-001°)
2.57039578276885e+002	(9.70571953729035e-005dB,-2.75681444307408e-001°)
2.63026799189536e+002	(1.03672284716910e-004dB,-2.82103151776887e-001°)
2.69153480392690e+002	(1.10599128846168e-004dB,-2.88674458746896e-001°)
2.75422870333815e+002	(1.17852419839136e-004dB,-2.95398851176186e-001°)
2.81838293126443e+002	(1.25447542114798e-004dB,-3.02279896317667e-001°)
2.88403150312659e+002	(1.33400605189278e-004dB,-3.09321244618841e-001°)
2.95120922666637e+002	(1.41728477660077e-004dB,-3.16526631666995e-001°)
3.01995172040200e+002	(1.50448823052417e-004dB,-3.23899880180225e-001°)
3.09029543251357e+002	(1.59580137342406e-004dB,-3.31444902045391e-001°)
3.16227766016836e+002	(1.69141788074018e-004dB,-3.39165700404162e-001°)
3.23593656929626e+002	(1.79154055544195e-004dB,-3.47066371788287e-001°)
3.31131121482589e+002	(1.89638175654806e-004dB,-3.55151108305288e-001°)
3.38844156139200e+002	(2.00616385114051e-004dB,-3.63424199875823e-001°)
3.46736850452529e+002	(2.12111968420145e-004dB,-3.71890036523945e-001°)
3.54813389233573e+002	(2.24149307396628e-004dB,-3.80553110721563e-001°)
3.63078054770099e+002	(2.36753932847131e-004dB,-3.89418019788427e-001°)
3.71535229097170e+002	(2.49952578578159e-004dB,-3.98489468348992e-001°)
3.80189396320558e+002	(2.63773238262215e-004dB,-4.07772270847554e-001°)
3.89045144994278e+002	(2.78245224647270e-004dB,-4.17271354123104e-001°)
3.98107170553494e+002	(2.93399231849070e-004dB,-4.26991760045344e-001°)
4.07380277804110e+002	(3.09267400218756e-004dB,-4.36938648213412e-001°)
4.16869383470332e+002	(3.25883384724712e-004dB,-4.47117298718833e-001°)
4.26579518801589e+002	(3.43282426292856e-004dB,-4.57533114974318e-001°)
4.36515832240163e+002	(3.61501426224578e-004dB,-4.68191626610032e-001°)
4.46683592150960e+002	(3.80579024847123e-004dB,-4.79098492439035e-001°)
4.57088189614872e+002	(4.00555683126953e-004dB,-4.90259503493604e-001°)
4.67735141287195e+002	(4.21473768630326e-004dB,-5.01680586134246e-001°)
4.78630092322635e+002	(4.43377645197942e-004dB,-5.13367805233205e-001°)
4.89778819368443e+002	(4.66313767119946e-004dB,-5.25327367434378e-001°)
5.01187233627268e+002	(4.90330777546384e-004dB,-5.37565624491553e-001°)
5.12861383991361e+002	(5.15479611626125e-004dB,-5.50089076686983e-001°)
5.24807460249769e+002	(5.41813604471794e-004dB,-5.62904376332345e-001°)
5.37031796370249e+002	(5.69388604223727e-004dB,-5.76018331354202e-001°)
