Freq.	V(vo)
Step Information: Run=1  (Run: 1/30)
1.00000000000000e+000	(-4.33044145852715e-05dB,-0.00107250416255357°)
1.02329299228075e+000	(-4.33043144750451e-05dB,-0.0010974859937418°)
1.04712854805090e+000	(-4.33042096280186e-05dB,-0.00112304972653968°)
1.07151930523761e+000	(-4.33040998455394e-05dB,-0.00114920891517351°)
1.09647819614318e+000	(-4.3303984873024e-05dB,-0.00117597742957564°)
1.12201845430196e+000	(-4.33038644954262e-05dB,-0.00120336946279332°)
1.14815362149688e+000	(-4.33037384417687e-05dB,-0.00123139953841804°)
1.17489755493953e+000	(-4.33036064449313e-05dB,-0.00126008251838508°)
1.20226443461741e+000	(-4.33034682291151e-05dB,-0.00128943361078487°)
1.23026877081238e+000	(-4.33033235214141e-05dB,-0.00131946837795045°)
1.25892541179417e+000	(-4.33031719659895e-05dB,-0.00135020274472431°)
1.28824955169313e+000	(-4.33030132889711e-05dB,-0.00138165300686439°)
1.31825673855641e+000	(-4.33028471268056e-05dB,-0.0014138358397197°)
1.34896288259165e+000	(-4.33026731352264e-05dB,-0.00144676830705704°)
1.38038426460288e+000	(-4.33024909439299e-05dB,-0.00148046787010174°)
1.41253754462275e+000	(-4.33023001469321e-05dB,-0.00151495239681318°)
1.44543977074593e+000	(-4.33021003922518e-05dB,-0.00155024017134342°)
1.47910838816821e+000	(-4.33018911736147e-05dB,-0.0015863499037337°)
1.51356124843621e+000	(-4.33016721496469e-05dB,-0.00162330073984328°)
1.54881661891248e+000	(-4.33014427658576e-05dB,-0.00166111227149983°)
1.58489319246111e+000	(-4.33012025767251e-05dB,-0.00169980454687436°)
1.62181009735893e+000	(-4.33009510779037e-05dB,-0.00173939808112553°)
1.65958690743756e+000	(-4.33006877052591e-05dB,-0.00177991386726713°)
1.69824365246174e+000	(-4.33004119602313e-05dB,-0.00182137338730944°)
1.73780082874937e+000	(-4.33001232314339e-05dB,-0.00186379862363498°)
1.77827941003892e+000	(-4.32998208361195e-05dB,-0.00190721207067025°)
1.81970085860998e+000	(-4.32995042091893e-05dB,-0.00195163674679479°)
1.86208713666287e+000	(-4.32991726717536e-05dB,-0.00199709620656875°)
1.90546071796325e+000	(-4.32988255073134e-05dB,-0.00204361455319057°)
1.94984459975804e+000	(-4.32984619675469e-05dB,-0.00209121645130834°)
1.99526231496888e+000	(-4.32980812713449e-05dB,-0.00213992714008054°)
2.04173794466953e+000	(-4.32976826838863e-05dB,-0.00218977244655766°)
2.08929613085404e+000	(-4.3297265305449e-05dB,-0.00224077879938549°)
2.13796208950223e+000	(-4.32968282527046e-05dB,-0.00229297324280229°)
2.18776162394955e+000	(-4.32963705863936e-05dB,-0.00234638345099697°)
2.23872113856834e+000	(-4.32958913653277e-05dB,-0.00240103774277062°)
2.29086765276777e+000	(-4.32953895557426e-05dB,-0.00245696509655228°)
2.34422881531992e+000	(-4.32948640949442e-05dB,-0.0025141951657642°)
2.39883291901949e+000	(-4.32943138681644e-05dB,-0.00257275829455315°)
2.45470891568503e+000	(-4.32937376883102e-05dB,-0.00263268553385845°)
2.51188643150958e+000	(-4.32931343663599e-05dB,-0.00269400865790495°)
2.57039578276886e+000	(-4.32925026390381e-05dB,-0.00275676018102324°)
2.63026799189538e+000	(-4.32918411032415e-05dB,-0.00282097337489976°)
2.69153480392691e+000	(-4.32911484156553e-05dB,-0.00288668228622746°)
2.75422870333816e+000	(-4.32904230892789e-05dB,-0.00295392175473766°)
2.81838293126445e+000	(-4.32896635618943e-05dB,-0.00302272743169062°)
2.88403150312660e+000	(-4.32888682462104e-05dB,-0.00309313579876802°)
2.95120922666638e+000	(-4.32880354440382e-05dB,-0.00316518418742061°)
3.01995172040201e+000	(-4.32871633829349e-05dB,-0.00323891079866147°)
3.09029543251359e+000	(-4.32862502219902e-05dB,-0.00331435472331865°)
3.16227766016837e+000	(-4.3285294045076e-05dB,-0.0033915559627598°)
3.23593656929628e+000	(-4.32842928087721e-05dB,-0.00347055545010597°)
3.31131121482591e+000	(-4.32832443626177e-05dB,-0.00355139507193924°)
3.38844156139202e+000	(-4.32821465088994e-05dB,-0.00363411769049618°)
3.46736850452531e+000	(-4.32809969476849e-05dB,-0.00371876716640608°)
3.54813389233575e+000	(-4.32797931601382e-05dB,-0.00380538838195072°)
3.63078054770101e+000	(-4.32785326727471e-05dB,-0.00389402726484438°)
3.71535229097172e+000	(-4.32772127815239e-05dB,-0.00398473081260328°)
3.80189396320560e+000	(-4.32758306532605e-05dB,-0.00407754711745262°)
3.89045144994280e+000	(-4.32743834229257e-05dB,-0.00417252539183106°)
3.98107170553496e+000	(-4.3272867948725e-05dB,-0.00426971599448038°)
4.07380277804112e+000	(-4.32712810811493e-05dB,-0.0043691704571542°)
4.16869383470335e+000	(-4.32696194228559e-05dB,-0.00447094151192677°)
4.26579518801592e+000	(-4.32678794627112e-05dB,-0.00457508311916908°)
4.36515832240165e+000	(-4.32660574687493e-05dB,-0.00468165049614324°)
4.46683592150962e+000	(-4.32641496492157e-05dB,-0.0047907001462937°)
4.57088189614874e+000	(-4.32621518844831e-05dB,-0.0049022898891942°)
4.67735141287197e+000	(-4.32600599681342e-05dB,-0.00501647889121185°)
4.78630092322637e+000	(-4.32578694912418e-05dB,-0.00513332769687983°)
4.89778819368445e+000	(-4.32555757584724e-05dB,-0.00525289826098707°)
5.01187233627271e+000	(-4.32531739308065e-05dB,-0.00537525398144173°)
5.12861383991364e+000	(-4.32506588914973e-05dB,-0.00550045973287888°)
5.24807460249771e+000	(-4.32480253415392e-05dB,-0.00562858190105611°)
5.37031796370252e+000	(-4.32452677003412e-05dB,-0.0057596884180564°)
5.49540873857623e+000	(-4.32423800411175e-05dB,-0.00589384879830435°)
5.62341325190348e+000	(-4.32393563367916e-05dB,-0.00603113417542545°)
5.75439937337156e+000	(-4.3236190099336e-05dB,-0.0061716173399573°)
5.88843655355588e+000	(-4.32328746661793e-05dB,-0.00631537277795362°)
6.02559586074356e+000	(-4.32294029600871e-05dB,-0.00646247671046735°)
6.16595001861481e+000	(-4.32257676588848e-05dB,-0.0066130071339702°)
6.30957344480192e+000	(-4.32219610016265e-05dB,-0.00676704386170758°)
6.45654229034654e+000	(-4.32179749612107e-05dB,-0.00692466856601242°)
6.60693448007594e+000	(-4.32138010534423e-05dB,-0.00708596482161471°)
6.76082975391980e+000	(-4.32094304228584e-05dB,-0.00725101814995093°)
6.91830970918935e+000	(-4.32048538407995e-05dB,-0.00741991606450686°)
7.07945784384136e+000	(-4.32000615723319e-05dB,-0.00759274811722518°)
7.24435960074988e+000	(-4.31950434553225e-05dB,-0.00776960594597757°)
7.41310241300916e+000	(-4.31897888242568e-05dB,-0.00795058332315983°)
7.58577575029182e+000	(-4.31842865314543e-05dB,-0.00813577620541159°)
7.76247116628690e+000	(-4.31785249615335e-05dB,-0.00832528278448966°)
7.94328234724279e+000	(-4.31724918096152e-05dB,-0.0085192035393317°)
8.12830516164097e+000	(-4.31661743590505e-05dB,-0.00871764128933485°)
8.31763771102669e+000	(-4.31595591805489e-05dB,-0.00892070124887°)
8.51138038202374e+000	(-4.31526322363266e-05dB,-0.00912849108306742°)
8.70963589956078e+000	(-4.31453788126026e-05dB,-0.00934112096490237°)
8.91250938133743e+000	(-4.31377835601013e-05dB,-0.00955870363361214°)
9.12010839355907e+000	(-4.31298303725462e-05dB,-0.00978135445447442°)
9.33254300796988e+000	(-4.3121502362552e-05dB,-0.010009191479967°)
9.54992586021433e+000	(-4.3112781841373e-05dB,-0.0102423355123734°)
9.77237220955808e+000	(-4.310365032469e-05dB,-0.0104809101678217°)
9.99999999999997e+000	(-4.30940884853573e-05dB,-0.0107250419418383°)
1.02329299228075e+001	(-4.3084075985609e-05dB,-0.0109748602764111°)
1.04712854805090e+001	(-4.30735916323171e-05dB,-0.0112304976286245°)
1.07151930523760e+001	(-4.30626131600158e-05dB,-0.0114920895408907°)
1.09647819614318e+001	(-4.30511173119063e-05dB,-0.0117597747128157°)
1.12201845430196e+001	(-4.30390796199886e-05dB,-0.0120336950747396°)
1.14815362149688e+001	(-4.30264746538593e-05dB,-0.0123139958629925°)
1.17489755493953e+001	(-4.30132756166566e-05dB,-0.0126008256968993°)
1.20226443461741e+001	(-4.2999454512854e-05dB,-0.0128943366575813°)
1.23026877081238e+001	(-4.29849820672562e-05dB,-0.0131946843685921°)
1.25892541179416e+001	(-4.29698275417765e-05dB,-0.0135020280784329°)
1.28824955169313e+001	(-4.2953958829941e-05dB,-0.0138165307449864°)
1.31825673855640e+001	(-4.29373422370211e-05dB,-0.0141383591219229°)
1.34896288259165e+001	(-4.29199425311429e-05dB,-0.0144676838471162°)
1.38038426460288e+001	(-4.29017227783867e-05dB,-0.0148046795331161°)
1.41253754462275e+001	(-4.28826443678597e-05dB,-0.0151495248597335°)
1.44543977074592e+001	(-4.28626668332944e-05dB,-0.0155024026687813°)
1.47910838816820e+001	(-4.28417477961531e-05dB,-0.0158635000610179°)
1.51356124843620e+001	(-4.28198428209782e-05dB,-0.0162330084953519°)
1.54881661891248e+001	(-4.27969055426841e-05dB,-0.0166111238903621°)
1.58489319246111e+001	(-4.27728872567161e-05dB,-0.0169980467281703°)
1.62181009735892e+001	(-4.27477370241627e-05dB,-0.0173939821607481°)
1.65958690743755e+001	(-4.27214014991404e-05dB,-0.0177991401186885°)
1.69824365246174e+001	(-4.26938248043944e-05dB,-0.018213735422517°)
1.73780082874937e+001	(-4.26649484715108e-05dB,-0.0186379878965953°)
1.77827941003892e+001	(-4.26347112412995e-05dB,-0.0190721224856752°)
1.81970085860998e+001	(-4.26030490030416e-05dB,-0.0195163693741716°)
1.86208713666286e+001	(-4.25698945148334e-05dB,-0.0199709641082104°)
1.90546071796324e+001	(-4.25351775173772e-05dB,-0.0204361477205211°)
1.94984459975804e+001	(-4.24988243569282e-05dB,-0.0209121668582386°)
1.99526231496887e+001	(-4.24607579361133e-05dB,-0.0213992739136813°)
2.04173794466952e+001	(-4.2420897522994e-05dB,-0.0218977271581771°)
2.08929613085403e+001	(-4.2379158509019e-05dB,-0.022407790879004°)
2.13796208950222e+001	(-4.23354524331326e-05dB,-0.0229297355195234°)
2.18776162394954e+001	(-4.22896864918946e-05dB,-0.0234638378225771°)
2.23872113856833e+001	(-4.22417637313827e-05dB,-0.0240103809772236°)
2.29086765276776e+001	(-4.21915824097688e-05dB,-0.0245696547688935°)
2.34422881531991e+001	(-4.21390361091827e-05dB,-0.025141955733042°)
2.39883291901948e+001	(-4.20840134059103e-05dB,-0.0257275873123813°)
2.45470891568502e+001	(-4.2026397529985e-05dB,-0.0263268600177763°)
2.51188643150957e+001	(-4.19660663343298e-05dB,-0.0269400915928857°)
2.57039578276885e+001	(-4.19028918029481e-05dB,-0.0275676071826427°)
2.63026799189537e+001	(-4.18367399583488e-05dB,-0.0282097395056558°)
2.69153480392690e+001	(-4.17674704632775e-05dB,-0.0288668290306295°)
2.75422870333815e+001	(-4.16949363854204e-05dB,-0.0295392241568918°)
2.81838293126444e+001	(-4.16189838946046e-05dB,-0.0302272813991303°)
2.88403150312659e+001	(-4.1539451878031e-05dB,-0.0309313655764279°)
2.95120922666637e+001	(-4.14561716249379e-05dB,-0.0316518500057067°)
3.01995172040200e+001	(-4.13689664996942e-05dB,-0.0323891166996738°)
3.09029543251358e+001	(-4.12776515281017e-05dB,-0.0331435565693821°)
3.16227766016837e+001	(-4.11820330126282e-05dB,-0.0339155696315078°)
3.23593656929627e+001	(-4.1081908144747e-05dB,-0.0347055652204567°)
3.31131121482590e+001	(-4.09770645285587e-05dB,-0.0355139622054143°)
3.38844156139201e+001	(-4.08672798124182e-05dB,-0.0363411892124482°)
3.46736850452530e+001	(-4.07523210650133e-05dB,-0.0371876848517877°)
3.54813389233574e+001	(-4.06319444744957e-05dB,-0.0380538979503992°)
3.63078054770100e+001	(-4.05058947409535e-05dB,-0.0389402877899755°)
3.71535229097171e+001	(-4.03739044814212e-05dB,-0.0398473243504741°)
3.80189396320559e+001	(-4.02356936744271e-05dB,-0.0407754885593271°)
3.89045144994279e+001	(-4.00909692009741e-05dB,-0.0417252725464575°)
3.98107170553495e+001	(-3.99394240817565e-05dB,-0.0426971799052364°)
4.07380277804111e+001	(-3.97807368667414e-05dB,-0.0436917259595205°)
4.16869383470333e+001	(-3.96145709591759e-05dB,-0.0447094380369113°)
4.26579518801591e+001	(-3.94405738865564e-05dB,-0.0457508557483792°)
4.36515832240164e+001	(-3.92583766043856e-05dB,-0.0468165312744057°)
4.46683592150961e+001	(-3.90675926437087e-05dB,-0.0479070296577879°)
4.57088189614873e+001	(-3.88678172798641e-05dB,-0.0490229291032697°)
4.67735141287196e+001	(-3.86586268265996e-05dB,-0.0501648212841508°)
4.78630092322636e+001	(-3.84395775087745e-05dB,-0.0513333116560414°)
4.89778819368444e+001	(-3.82102047468336e-05dB,-0.0525290197779275°)
5.01187233627270e+001	(-3.79700219764723e-05dB,-0.0537525796407155°)
5.12861383991362e+001	(-3.7718519743139e-05dB,-0.0550046400034343°)
5.24807460249770e+001	(-3.74551645757046e-05dB,-0.0562858647372699°)
5.37031796370250e+001	(-3.71793978688133e-05dB,-0.0575969331776173°)
5.49540873857622e+001	(-3.68906346958018e-05dB,-0.0589385404843353°)
5.62341325190346e+001	(-3.65882625386875e-05dB,-0.0603113980103958°)
5.75439937337154e+001	(-3.62716400528741e-05dB,-0.0617162336791256°)
5.88843655355586e+001	(-3.59400955965609e-05dB,-0.0631537923702368°)
6.02559586074355e+001	(-3.55929259231265e-05dB,-0.0646248363148548°)
6.16595001861479e+001	(-3.52293946767905e-05dB,-0.0661301454997505°)
6.30957344480190e+001	(-3.48487307831641e-05dB,-0.0676705180809955°)
6.45654229034652e+001	(-3.44501267327634e-05dB,-0.0692467708072554°)
6.60693448007593e+001	(-3.40327370544963e-05dB,-0.0708597394529494°)
6.76082975391978e+001	(-3.35956764805677e-05dB,-0.0725102792615059°)
6.91830970918933e+001	(-3.31380178519811e-05dB,-0.0741992653989473°)
7.07945784384134e+001	(-3.26587904705287e-05dB,-0.0759275934180493°)
7.24435960074986e+001	(-3.21569778114334e-05dB,-0.0776961797333169°)
7.41310241300914e+001	(-3.16315154944349e-05dB,-0.0795059621070341°)
7.58577575029180e+001	(-3.1081288926043e-05dB,-0.0813579001466401°)
7.76247116628688e+001	(-3.05051309977255e-05dB,-0.083252975813704°)
7.94328234724277e+001	(-2.99018196413811e-05dB,-0.0851921939447612°)
8.12830516164095e+001	(-2.92700751148038e-05dB,-0.0871765827842934°)
8.31763771102667e+001	(-2.86085574491603e-05dB,-0.0892071945301339°)
8.51138038202372e+001	(-2.79158634721692e-05dB,-0.0912851058915892°)
8.70963589956076e+001	(-2.71905238640726e-05dB,-0.0934114186605724°)
8.91250938133741e+001	(-2.64310001075399e-05dB,-0.095587260296055°)
9.12010839355905e+001	(-2.56356812013182e-05dB,-0.0978137845221459°)
9.33254300796986e+001	(-2.48028800894138e-05dB,-0.100092171940116°)
9.54992586021431e+001	(-2.39308303709045e-05dB,-0.102423630654699°)
9.77237220955805e+001	(-2.30176823193008e-05dB,-0.104809396914992°)
9.99999999999995e+001	(-2.20614989626726e-05dB,-0.10725073577031°)
1.02329299228075e+002	(-2.1060252212969e-05dB,-0.109748941741334°)
1.04712854805089e+002	(-2.00118182798195e-05dB,-0.112305339506918°)
1.07151930523760e+002	(-1.89139732531083e-05dB,-0.114921284606907°)
1.09647819614318e+002	(-1.77643885534522e-05dB,-0.117598164161367°)
1.12201845430196e+002	(-1.65606257337031e-05dB,-0.120337397606579°)
1.14815362149688e+002	(-1.53001314434428e-05dB,-0.123140437448217°)
1.17489755493952e+002	(-1.39802320993793e-05dB,-0.126008770032094°)
1.20226443461741e+002	(-1.25981279964564e-05dB,-0.128943916332896°)
1.23026877081237e+002	(-1.11508875646043e-05dB,-0.131947432761323°)
1.25892541179416e+002	(-9.63544099484746e-06dB,-0.135020911990072°)
1.28824955169313e+002	(-8.04857387605351e-06dB,-0.138165983799096°)
1.31825673855640e+002	(-6.38692029554935e-06dB,-0.141384315940595°)
1.34896288259165e+002	(-4.6469557141239e-06dB,-0.144677615024209°)
1.38038426460288e+002	(-2.82498944955571e-06dB,-0.14804762742287°)
1.41253754462275e+002	(-9.17156926819632e-07dB,-0.151496140199814°)
1.44543977074592e+002	(1.08058858371368e-06dB,-0.155024982057243°)
1.47910838816820e+002	(3.17248451249902e-06dB,-0.158636024307145°)
1.51356124843620e+002	(5.36296794970884e-06dB,-0.162331181864793°)
1.54881661891247e+002	(7.65668520097676e-06dB,-0.166112414265452°)
1.58489319246110e+002	(1.0058501421178e-05dB,-0.169981726704856°)
1.62181009735892e+002	(1.25735111189162e-05dB,-0.173941171103991°)
1.65958690743755e+002	(1.52070488730731e-05dB,-0.177992847198769°)
1.69824365246173e+002	(1.79647006876457e-05dB,-0.182138903655184°)
1.73780082874936e+002	(2.08523158132105e-05dB,-0.186381539210531°)
1.77827941003891e+002	(2.38760191179362e-05dB,-0.190723003841327°)
1.81970085860997e+002	(2.70422241797842e-05dB,-0.195165599958545°)
1.86208713666286e+002	(3.03576467469413e-05dB,-0.199711683630813°)
1.90546071796323e+002	(3.38293191971379e-05dB,-0.204363665836232°)
1.94984459975803e+002	(3.74646052571653e-05dB,-0.209124013743502°)
1.99526231496887e+002	(4.12712155573137e-05dB,-0.213995252023038°)
2.04173794466952e+002	(4.5257224331222e-05dB,-0.218979964188785°)
2.08929613085403e+002	(4.94310861174347e-05dB,-0.224080793971459°)
2.13796208950222e+002	(5.38016540711343e-05dB,-0.229300446723974°)
2.18776162394954e+002	(5.83781984549688e-05dB,-0.234641690859789°)
2.23872113856832e+002	(6.31704264449223e-05dB,-0.240107359324986°)
2.29086765276776e+002	(6.81885026899629e-05dB,-0.245700351104855°)
2.34422881531991e+002	(7.34430707835849e-05dB,-0.251423632765826°)
2.39883291901947e+002	(7.89452760348696e-05dB,-0.257280240033573°)
2.45470891568501e+002	(8.47067889199298e-05dB,-0.263273279408166°)
2.51188643150956e+002	(9.07398298925818e-05dB,-0.269405929817143°)
2.57039578276885e+002	(9.70571953729035e-05dB,-0.275681444307408°)
2.63026799189536e+002	(0.00010367228471691dB,-0.282103151776887°)
2.69153480392690e+002	(0.000110599128846168dB,-0.288674458746896°)
2.75422870333815e+002	(0.000117852419839136dB,-0.295398851176186°)
2.81838293126443e+002	(0.000125447542114798dB,-0.302279896317667°)
2.88403150312659e+002	(0.000133400605189278dB,-0.309321244618841°)
2.95120922666637e+002	(0.000141728477660077dB,-0.316526631666995°)
3.01995172040200e+002	(0.000150448823052417dB,-0.323899880180225°)
3.09029543251357e+002	(0.000159580137342406dB,-0.331444902045391°)
3.16227766016836e+002	(0.000169141788074018dB,-0.339165700404162°)
3.23593656929626e+002	(0.000179154055544195dB,-0.347066371788287°)
3.31131121482589e+002	(0.000189638175654806dB,-0.355151108305288°)
3.38844156139200e+002	(0.000200616385114051dB,-0.363424199875823°)
3.46736850452529e+002	(0.000212111968420145dB,-0.371890036523945°)
3.54813389233573e+002	(0.000224149307396628dB,-0.380553110721563°)
3.63078054770099e+002	(0.000236753932847131dB,-0.389418019788427°)
3.71535229097170e+002	(0.000249952578578159dB,-0.398489468348992°)
3.80189396320558e+002	(0.000263773238262215dB,-0.407772270847554°)
3.89045144994278e+002	(0.00027824522464727dB,-0.417271354123104°)
3.98107170553494e+002	(0.00029339923184907dB,-0.426991760045344°)
4.07380277804110e+002	(0.000309267400218756dB,-0.436938648213412°)
4.16869383470332e+002	(0.000325883384724712dB,-0.447117298718833°)
4.26579518801589e+002	(0.000343282426292856dB,-0.457533114974318°)
4.36515832240163e+002	(0.000361501426224578dB,-0.468191626610032°)
4.46683592150960e+002	(0.000380579024847123dB,-0.479098492439035°)
4.57088189614872e+002	(0.000400555683126953dB,-0.490259503493604°)
4.67735141287195e+002	(0.000421473768630326dB,-0.501680586134246°)
4.78630092322635e+002	(0.000443377645197942dB,-0.513367805233205°)
4.89778819368443e+002	(0.000466313767119946dB,-0.525327367434378°)
5.01187233627268e+002	(0.000490330777546384dB,-0.537565624491553°)
5.12861383991361e+002	(0.000515479611626125dB,-0.550089076686983°)
5.24807460249769e+002	(0.000541813604471794dB,-0.562904376332345°)
5.37031796370249e+002	(0.000569388604223727dB,-0.576018331354202°)
5.49540873857620e+002	(0.000598263090366246dB,-0.589437908966145°)
5.62341325190345e+002	(0.000628498297769663dB,-0.603170239429861°)
5.75439937337152e+002	(0.000660158346506989dB,-0.617222619907445°)
5.88843655355584e+002	(0.000693310377534743dB,-0.631602518407344°)
6.02559586074353e+002	(0.000728024695250884dB,-0.646317577826374°)
6.16595001861477e+002	(0.000764374916322809dB,-0.661375620090375°)
6.30957344480188e+002	(0.00080243812579236dB,-0.676784650396099°)
6.45654229034650e+002	(0.000842295040257404dB,-0.692552861557049°)
6.60693448007591e+002	(0.00088403017919252dB,-0.708688638456034°)
6.76082975391976e+002	(0.000927732043762492dB,-0.72520056260736°)
6.91830970918931e+002	(0.000973493304420242dB,-0.742097416831581°)
7.07945784384132e+002	(0.00102141099737141dB,-0.759388190045935°)
7.24435960074984e+002	(0.00107158672997214dB,-0.777082082173609°)
7.41310241300911e+002	(0.00112412689597876dB,-0.795188509175145°)
7.58577575029177e+002	(0.00117914290116648dB,-0.813717108205359°)
7.76247116628685e+002	(0.00123675139893741dB,-0.832677742899338°)
7.94328234724275e+002	(0.00129707453773209dB,-0.852080508791115°)
