Freq.	I(L1)/v(n001)
1.00000000000000e+001	(1.3823007675816683e-06dB,89.9999840808°)
1.01157945425990e+001	(1.3983070560933053e-06dB,89.9999838964644°)
1.02329299228075e+001	(1.4144986886906307e-06dB,89.9999837099942°)
1.03514216667934e+001	(1.4308778115571738e-06dB,89.9999835213648°)
1.04712854805090e+001	(1.4474465957276035e-06dB,89.9999833305512°)
1.05925372517729e+001	(1.4642072373764799e-06dB,89.9999831375281°)
1.07151930523761e+001	(1.4811619581088594e-06dB,89.9999829422699°)
1.08392691402120e+001	(1.4983130052542854e-06dB,89.9999827447507°)
1.09647819614319e+001	(1.5156626521656381e-06dB,89.9999825449443°)
1.10917481526240e+001	(1.5332131985200018e-06dB,89.9999823428243°)
1.12201845430196e+001	(1.5509669706229365e-06dB,89.9999821383638°)
1.13501081567232e+001	(1.568926321717881e-06dB,89.9999819315358°)
1.14815362149688e+001	(1.5870936322975453e-06dB,89.9999817223129°)
1.16144861384034e+001	(1.6054713104189105e-06dB,89.9999815106672°)
1.17489755493953e+001	(1.6240617920236747e-06dB,89.9999812965709°)
1.18850222743702e+001	(1.6428675412596612e-06dB,89.9999810799953°)
1.20226443461741e+001	(1.6618910508089394e-06dB,89.999980860912°)
1.21618600064637e+001	(1.6811348422167158e-06dB,89.9999806392918°)
1.23026877081238e+001	(1.7006014662268889e-06dB,89.9999804151054°)
1.24451461177139e+001	(1.7202935031195726e-06dB,89.999980188323°)
1.25892541179417e+001	(1.7402135630525496e-06dB,89.9999799589146°)
1.27350308101666e+001	(1.7603642864085762e-06dB,89.9999797268497°)
1.28824955169314e+001	(1.7807483441437993e-06dB,89.9999794920977°)
1.30316677845230e+001	(1.8013684381434119e-06dB,89.9999792546274°)
1.31825673855641e+001	(1.822227301578118e-06dB,89.9999790144073°)
1.33352143216333e+001	(1.8433276992680908e-06dB,89.9999787714056°)
1.34896288259166e+001	(1.8646724280479866e-06dB,89.9999785255901°)
1.36458313658893e+001	(1.8862643171382617e-06dB,89.9999782769281°)
1.38038426460289e+001	(1.908106228520861e-06dB,89.9999780253868°)
1.39636836105594e+001	(1.9302010573170454e-06dB,89.9999777709328°)
1.41253754462276e+001	(1.952551732172883e-06dB,89.9999775135323°)
1.42889395851111e+001	(1.9751612156456638e-06dB,89.9999772531513°)
1.44543977074593e+001	(1.9980325045983868e-06dB,89.9999769897552°)
1.46217717445672e+001	(2.0211686305954093e-06dB,89.9999767233091°)
1.47910838816821e+001	(2.04457266030493e-06dB,89.9999764537777°)
1.49623565609444e+001	(2.0682476959062065e-06dB,89.9999761811253°)
1.51356124843621e+001	(2.0921968754993364e-06dB,89.9999759053158°)
1.53108746168203e+001	(2.116423373521883e-06dB,89.9999756263125°)
1.54881661891249e+001	(2.1409304011704046e-06dB,89.9999753440785°)
1.56675107010815e+001	(2.165721206824635e-06dB,89.9999750585764°)
1.58489319246112e+001	(2.190799076479004e-06dB,89.9999747697683°)
1.60324539069005e+001	(2.2161673341777197e-06dB,89.999974477616°)
1.62181009735893e+001	(2.2418293424563727e-06dB,89.9999741820807°)
1.64058977319954e+001	(2.267788502786104e-06dB,89.9999738831233°)
1.65958690743757e+001	(2.2940482560255013e-06dB,89.9999735807041°)
1.67880401812257e+001	(2.3206120828764185e-06dB,89.9999732747831°)
1.69824365246175e+001	(2.347483504345322e-06dB,89.9999729653196°)
1.71790838715759e+001	(2.3746660822100315e-06dB,89.9999726522728°)
1.73780082874938e+001	(2.402163419491514e-06dB,89.9999723356011°)
1.75792361395870e+001	(2.4299791609325954e-06dB,89.9999720152624°)
1.77827941003893e+001	(2.458116993479407e-06dB,89.9999716912144°)
1.79887091512879e+001	(2.486580646771165e-06dB,89.9999713634141°)
1.81970085860999e+001	(2.515373893634288e-06dB,89.9999710318181°)
1.84077200146896e+001	(2.544500550582465e-06dB,89.9999706963823°)
1.86208713666287e+001	(2.573964478322521e-06dB,89.9999703570625°)
1.88364908948981e+001	(2.6037695822661525e-06dB,89.9999700138134°)
1.90546071796325e+001	(2.633919813047932e-06dB,89.9999696665897°)
1.92752491319094e+001	(2.6644191670476655e-06dB,89.9999693153454°)
1.94984459975805e+001	(2.6952716869219986e-06dB,89.9999689600339°)
1.97242273611486e+001	(2.7264814621390285e-06dB,89.999968600608°)
1.99526231496889e+001	(2.758052629520644e-06dB,89.9999682370202°)
2.01836636368157e+001	(2.78998937379089e-06dB,89.9999678692222°)
2.04173794466954e+001	(2.822295928130956e-06dB,89.9999674971653°)
2.06538015581054e+001	(2.854976574738973e-06dB,89.9999671208002°)
2.08929613085405e+001	(2.8880356453995803e-06dB,89.999966740077°)
2.11348903983666e+001	(2.9214775220571157e-06dB,89.9999663549453°)
2.13796208950224e+001	(2.9553066373954354e-06dB,89.9999659653539°)
2.16271852372703e+001	(2.9895274754274782e-06dB,89.9999655712513°)
2.18776162394956e+001	(3.0241445720885923e-06dB,89.9999651725851°)
2.21309470960565e+001	(3.0591625158367685e-06dB,89.9999647693027°)
2.23872113856835e+001	(3.094585948263211e-06dB,89.9999643613505°)
2.26464430759307e+001	(3.130419564704807e-06dB,89.9999639486743°)
2.29086765276778e+001	(3.1666681148693292e-06dB,89.9999635312197°)
2.31739464996849e+001	(3.2033364034624706e-06dB,89.9999631089311°)
2.34422881531993e+001	(3.240429290825809e-06dB,89.9999626817526°)
2.37137370566167e+001	(3.2779516935821185e-06dB,89.9999622496277°)
2.39883291901950e+001	(3.315908585284868e-06dB,89.999961812499°)
2.42661009508243e+001	(3.3543049970785695e-06dB,89.9999613703086°)
2.45470891568504e+001	(3.393146018366766e-06dB,89.9999609229978°)
2.48313310529558e+001	(3.4324367974843935e-06dB,89.9999604705075°)
2.51188643150959e+001	(3.472182542381658e-06dB,89.9999600127775°)
2.54097270554932e+001	(3.512388521313988e-06dB,89.9999595497473°)
2.57039578276888e+001	(3.553060063540356e-06dB,89.9999590813555°)
2.60015956316529e+001	(3.5942025600296163e-06dB,89.9999586075399°)
2.63026799189540e+001	(3.6358214641751363e-06dB,89.9999581282378°)
2.66072505979882e+001	(3.677922292517551e-06dB,89.9999576433856°)
2.69153480392693e+001	(3.7205106254760784e-06dB,89.9999571529192°)
2.72270130807793e+001	(3.7635921080885446e-06dB,89.9999566567733°)
2.75422870333818e+001	(3.8071724507579424e-06dB,89.9999561548824°)
2.78612116862979e+001	(3.851257430011936e-06dB,89.9999556471799°)
2.81838293126447e+001	(3.895852889267191e-06dB,89.9999551335984°)
2.85101826750393e+001	(3.940964739602664e-06dB,89.99995461407°)
2.88403150312662e+001	(3.986598960546143e-06dB,89.9999540885257°)
2.91742701400118e+001	(4.0327616008632776e-06dB,89.9999535568959°)
2.95120922666640e+001	(4.0794587793629495e-06dB,89.9999530191101°)
2.98538261891798e+001	(4.126696685704685e-06dB,89.999952475097°)
3.01995172040203e+001	(4.174481581222711e-06dB,89.9999519247846°)
3.05492111321553e+001	(4.222819799752735e-06dB,89.9999513680998°)
3.09029543251361e+001	(4.271717748473232e-06dB,89.999950804969°)
3.12607936712397e+001	(4.321181908754376e-06dB,89.9999502353173°)
3.16227766016840e+001	(4.371218837016999e-06dB,89.9999496590695°)
3.19889510969142e+001	(4.421835165601781e-06dB,89.999949076149°)
3.23593656929630e+001	(4.473037603648213e-06dB,89.9999484864786°)
3.27340694878840e+001	(4.524832937984035e-06dB,89.9999478899801°)
3.31131121482593e+001	(4.5772280340252e-06dB,89.9999472865745°)
3.34965439157830e+001	(4.630229836683929e-06dB,89.9999466761818°)
3.38844156139205e+001	(4.6838453712927815e-06dB,89.9999460587211°)
3.42767786546453e+001	(4.73808174453174e-06dB,89.9999454341105°)
3.46736850452534e+001	(4.79294614537441e-06dB,89.9999448022673°)
3.50751873952570e+001	(4.848445846036614e-06dB,89.9999441631077°)
3.54813389233578e+001	(4.904588202944646e-06dB,89.9999435165469°)
3.58921934645008e+001	(4.961380657706563e-06dB,89.9999428624994°)
3.63078054770104e+001	(5.01883073810073e-06dB,89.9999422008783°)
3.67282300498087e+001	(5.076946059073074e-06dB,89.999941531596°)
3.71535229097175e+001	(5.135734323746456e-06dB,89.9999408545638°)
3.75837404288447e+001	(5.195203324442253e-06dB,89.9999401696919°)
3.80189396320564e+001	(5.2553609437109325e-06dB,89.9999394768896°)
3.84591782045356e+001	(5.316215155380336e-06dB,89.999938776065°)
3.89045144994284e+001	(5.377774025610931e-06dB,89.9999380671253°)
3.93550075455780e+001	(5.44004571396371e-06dB,89.9999373499764°)
3.98107170553500e+001	(5.503038474482829e-06dB,89.9999366245233°)
4.02717034325462e+001	(5.566760656791774e-06dB,89.9999358906699°)
4.07380277804116e+001	(5.631220707196143e-06dB,89.9999351483188°)
4.12097519097333e+001	(5.696427169805787e-06dB,89.9999343973717°)
4.16869383470339e+001	(5.7623886876673775e-06dB,89.9999336377291°)
4.21696503428586e+001	(5.829114003907339e-06dB,89.9999328692902°)
4.26579518801596e+001	(5.896611962894705e-06dB,89.9999320919532°)
4.31519076827769e+001	(5.9648915114115365e-06dB,89.9999313056151°)
4.36515832240170e+001	(6.033961699837365e-06dB,89.9999305101716°)
4.41570447353316e+001	(6.103831683350817e-06dB,89.9999297055173°)
4.46683592150967e+001	(6.174510723142564e-06dB,89.9999288915456°)
4.51855944374926e+001	(6.246008187642762e-06dB,89.9999280681485°)
4.57088189614879e+001	(6.318333553762889e-06dB,89.9999272352169°)
4.62381021399264e+001	(6.391496408152617e-06dB,89.9999263926404°)
4.67735141287202e+001	(6.465506448467593e-06dB,89.9999255403074°)
4.73151258961485e+001	(6.540373484659972e-06dB,89.9999246781048°)
4.78630092322643e+001	(6.616107440273588e-06dB,89.9999238059183°)
4.84172367584104e+001	(6.692718353762201e-06dB,89.9999229236325°)
4.89778819368451e+001	(6.770216379819414e-06dB,89.9999220311302°)
4.95450190804795e+001	(6.848611790725463e-06dB,89.9999211282932°)
5.01187233627277e+001	(6.927914977705551e-06dB,89.9999202150019°)
5.06990708274709e+001	(7.008136452312821e-06dB,89.9999192911352°)
5.12861383991370e+001	(7.089286847816042e-06dB,89.9999183565706°)
5.18800038928966e+001	(7.171376920612226e-06dB,89.9999174111842°)
5.24807460249778e+001	(7.254417551651622e-06dB,89.9999164548508°)
5.30884444230993e+001	(7.3384197478807835e-06dB,89.9999154874435°)
5.37031796370258e+001	(7.423394643698135e-06dB,89.9999145088343°)
5.43250331492439e+001	(7.509353502435798e-06dB,89.9999135188932°)
5.49540873857630e+001	(7.596307717846536e-06dB,89.9999125174892°)
5.55904257270409e+001	(7.6842688156183e-06dB,89.9999115044895°)
5.62341325190355e+001	(7.773248454897576e-06dB,89.9999104797597°)
5.68852930843847e+001	(7.86325842984094e-06dB,89.9999094431642°)
5.75439937337163e+001	(7.9543106711722e-06dB,89.9999083945655°)
5.82103217770877e+001	(8.046417247767325e-06dB,89.9999073338246°)
5.88843655355595e+001	(8.139590368254208e-06dB,89.9999062608008°)
5.95662143529017e+001	(8.233842382627195e-06dB,89.9999051753521°)
6.02559586074364e+001	(8.3291857838906e-06dB,89.9999040773344°)
6.09536897240175e+001	(8.425633209709005e-06dB,89.9999029666022°)
6.16595001861489e+001	(8.5231974440823e-06dB,89.9999018430085°)
6.23734835482426e+001	(8.621891419046052e-06dB,89.9999007064041°)
6.30957344480200e+001	(8.721728216378745e-06dB,89.9998995566384°)
6.38263486190555e+001	(8.822721069339766e-06dB,89.9998983935591°)
6.45654229034662e+001	(8.924883364423386e-06dB,89.999897217012°)
6.53130552647479e+001	(9.028228643129136e-06dB,89.9998960268411°)
6.60693448007603e+001	(9.132770603764871e-06dB,89.9998948228886°)
6.68343917568622e+001	(9.238523103251122e-06dB,89.9998936049951°)
6.76082975391989e+001	(9.345500158969311e-06dB,89.999892372999°)
6.83911647281437e+001	(9.453715950611202e-06dB,89.999891126737°)
6.91830970918944e+001	(9.563184822062787e-06dB,89.9998898660441°)
6.99841996002281e+001	(9.673921283305534e-06dB,89.999888590753°)
7.07945784384146e+001	(9.785940012336339e-06dB,89.9998873006947°)
7.16143410212910e+001	(9.899255857117517e-06dB,89.9998859956982°)
7.24435960074998e+001	(1.001388383754002e-05dB,89.9998846755906°)
7.32824533138912e+001	(1.012983914741954e-05dB,89.9998833401969°)
7.41310241300926e+001	(1.0247137156506805e-05dB,89.9998819893401°)
7.49894209332465e+001	(1.0365793412525766e-05dB,89.999880622841°)
7.58577575029193e+001	(1.048582364323455e-05dB,89.9998792405187°)
7.67361489361828e+001	(1.0607243758510481e-05dB,89.9998778421898°)
7.76247116628701e+001	(1.0730069852458106e-05dB,89.999876427669°)
7.85235634610081e+001	(1.08543182055434e-05dB,89.9998749967689°)
7.94328234724291e+001	(1.098000528675101e-05dB,89.9998735492997°)
8.03526122185627e+001	(1.1107147755767213e-05dB,89.9998720850696°)
8.12830516164109e+001	(1.123576246518881e-05dB,89.9998706038845°)
8.22242649947081e+001	(1.136586646275623e-05dB,89.9998691055481°)
8.31763771102681e+001	(1.1497476993613504e-05dB,89.9998675898617°)
8.41395141645205e+001	(1.1630611502593803e-05dB,89.9998660566246°)
8.51138038202387e+001	(1.1765287636532378e-05dB,89.9998645056334°)
8.60993752184611e+001	(1.1901523246604722e-05dB,89.9998629366826°)
8.70963589956091e+001	(1.203933639069366e-05dB,89.9998613495642°)
8.81048873008025e+001	(1.2178745335782028e-05dB,89.9998597440678°)
8.91250938133757e+001	(1.2319768560374553e-05dB,89.9998581199806°)
9.01571137605968e+001	(1.2462424756947114e-05dB,89.9998564770874°)
9.12010839355921e+001	(1.2606732834424038e-05dB,89.9998548151705°)
9.22571427154775e+001	(1.2752711920684748e-05dB,89.9998531340094°)
9.33254300797003e+001	(1.290038136509889e-05dB,89.9998514333813°)
9.44060876285936e+001	(1.3049760741091703e-05dB,89.999849713061°)
9.54992586021448e+001	(1.3200869848737609e-05dB,89.9998479728202°)
9.66050878989826e+001	(1.3353728717385141e-05dB,89.9998462124285°)
9.77237220955824e+001	(1.3508357608311975e-05dB,89.9998444316523°)
9.88553094656952e+001	(1.366477701741019e-05dB,89.9998426302557°)
1.00000000000001e+002	(1.3823007677902916e-05dB,89.999840808°)
1.01157945425991e+002	(1.3983070563093146e-05dB,89.9998389646435°)
1.02329299228077e+002	(1.4144986889142703e-05dB,89.999837099942°)
1.03514216667936e+002	(1.4308778117885621e-05dB,89.9998352136482°)
1.04712854805091e+002	(1.4474465959671859e-05dB,89.9998333055122°)
1.05925372517730e+002	(1.4642072376245318e-05dB,89.9998313752809°)
1.07151930523762e+002	(1.4811619583655178e-05dB,89.9998294226987°)
1.08392691402122e+002	(1.4983130055200381e-05dB,89.9998274475067°)
1.09647819614320e+002	(1.5156626524407853e-05dB,89.999825449443°)
1.10917481526242e+002	(1.5332131988047097e-05dB,89.9998234282428°)
1.12201845430198e+002	(1.5509669709177068e-05dB,89.9998213836382°)
1.13501081567233e+002	(1.568926322023088e-05dB,89.9998193153582°)
1.14815362149690e+002	(1.5870936326133593e-05dB,89.9998172231286°)
1.16144861384036e+002	(1.6054713107459038e-05dB,89.9998151066722°)
1.17489755493955e+002	(1.624061792362047e-05dB,89.9998129657084°)
1.18850222743704e+002	(1.6428675416100083e-05dB,89.9998107999534°)
1.20226443461743e+002	(1.661891051171497e-05dB,89.9998086091201°)
1.21618600064639e+002	(1.681134842592101e-05dB,89.9998063929181°)
1.23026877081240e+002	(1.700601466615549e-05dB,89.9998041510538°)
1.24451461177140e+002	(1.7202935035217855e-05dB,89.9998018832299°)
1.25892541179419e+002	(1.7402135634689932e-05dB,89.9997995891458°)
1.27350308101668e+002	(1.7603642868395518e-05dB,89.9997972684975°)
1.28824955169315e+002	(1.7807483445900206e-05dB,89.9997949209773°)
1.30316677845232e+002	(1.8013684386052074e-05dB,89.9997925462742°)
1.31825673855643e+002	(1.8222273020562544e-05dB,89.9997901440732°)
1.33352143216334e+002	(1.84332769976293e-05dB,89.9997877140561°)
1.34896288259167e+002	(1.864672428560099e-05dB,89.9997852559007°)
1.36458313658895e+002	(1.8862643176685095e-05dB,89.9997827692813°)
1.38038426460291e+002	(1.9081062290696424e-05dB,89.9997802538681°)
1.39636836105596e+002	(1.9302010578852474e-05dB,89.9997777093278°)
1.41253754462278e+002	(1.95255173276095e-05dB,89.9997751353231°)
1.42889395851113e+002	(1.9751612162545492e-05dB,89.9997725315129°)
1.44543977074595e+002	(1.9980325052285834e-05dB,89.9997698975519°)
1.46217717445674e+002	(2.021168631247656e-05dB,89.9997672330912°)
1.47910838816823e+002	(2.044572660980263e-05dB,89.9997645377774°)
1.49623565609446e+002	(2.0682476966051998e-05dB,89.9997618112534°)
1.51356124843623e+002	(2.0921968762227944e-05dB,89.9997590531577°)
1.53108746168206e+002	(2.1164233742709493e-05dB,89.9997562631247°)
1.54881661891251e+002	(2.1409304019457193e-05dB,89.9997534407847°)
1.56675107010818e+002	(2.165721207627127e-05dB,89.9997505857636°)
1.58489319246114e+002	(2.1907990773096553e-05dB,89.9997476976828°)
1.60324539069007e+002	(2.2161673350377413e-05dB,89.9997447761597°)
1.62181009735896e+002	(2.241829343346558e-05dB,89.9997418208069°)
1.64058977319957e+002	(2.2677885037075368e-05dB,89.9997388312327°)
1.65958690743759e+002	(2.2940482569792652e-05dB,89.9997358070409°)
1.67880401812259e+002	(2.320612083863665e-05dB,89.9997327478306°)
1.69824365246177e+002	(2.3474835053672175e-05dB,89.9997296531964°)
1.71790838715762e+002	(2.3746660832678136e-05dB,89.9997265227279°)
1.73780082874941e+002	(2.4021634205867126e-05dB,89.9997233560104°)
1.75792361395872e+002	(2.4299791620662727e-05dB,89.9997201526239°)
1.77827941003895e+002	(2.4581169946529005e-05dB,89.999716912144°)
1.79887091512882e+002	(2.4865806479859013e-05dB,89.9997136341411°)
1.81970085861002e+002	(2.515373894891702e-05dB,89.9997103181808°)
1.84077200146899e+002	(2.5445005518840855e-05dB,89.9997069638234°)
1.86208713666290e+002	(2.5739644796698814e-05dB,89.9997035706244°)
1.88364908948983e+002	(2.603769583660894e-05dB,89.999700138134°)
1.90546071796328e+002	(2.633919814491386e-05dB,89.9996966658972°)
1.92752491319097e+002	(2.6644191685418848e-05dB,89.9996931534538°)
1.94984459975808e+002	(2.695271688468776e-05dB,89.9996896003383°)
1.97242273611489e+002	(2.7264814637402225e-05dB,89.9996860060796°)
1.99526231496892e+002	(2.7580526311781646e-05dB,89.9996823702014°)
2.01836636368160e+002	(2.7899893755067288e-05dB,89.9996786922216°)
2.04173794466957e+002	(2.8222959299068586e-05dB,89.9996749716529°)
2.06538015581057e+002	(2.8549765765773787e-05dB,89.999671208002°)
2.08929613085408e+002	(2.8880356473026974e-05dB,89.9996674007701°)
2.11348903983668e+002	(2.9214775240269012e-05dB,89.9996635494525°)
2.13796208950227e+002	(2.9553066394345743e-05dB,89.9996596535388°)
2.16271852372706e+002	(2.9895274775384128e-05dB,89.9996557125125°)
2.18776162394959e+002	(3.0241445742735224e-05dB,89.9996517258513°)
2.21309470960568e+002	(3.059162518098626e-05dB,89.9996476930267°)
2.23872113856838e+002	(3.094585950604377e-05dB,89.9996436135042°)
2.26464430759310e+002	(3.130419567128441e-05dB,89.9996394867431°)
2.29086765276782e+002	(3.166668117377972e-05dB,89.9996353121963°)
2.31739464996852e+002	(3.203336406059142e-05dB,89.9996310893106°)
2.34422881531997e+002	(3.240429293513988e-05dB,89.9996268175261°)
2.37137370566170e+002	(3.277951696364635e-05dB,89.9996224962767°)
2.39883291901954e+002	(3.315908588165079e-05dB,89.9996181249896°)
2.42661009508246e+002	(3.3543050000602915e-05dB,89.9996137030854°)
2.45470891568508e+002	(3.39314602145322e-05dB,89.9996092299779°)
2.48313310529562e+002	(3.4324368006792125e-05dB,89.9996047050743°)
2.51188643150963e+002	(3.472182545688706e-05dB,89.9996001277748°)
2.54097270554935e+002	(3.512388524737261e-05dB,89.9995954974727°)
2.57039578276891e+002	(3.553060067083933e-05dB,89.9995908135541°)
2.60015956316532e+002	(3.594202563697735e-05dB,89.9995860753984°)
2.63026799189543e+002	(3.635821467972199e-05dB,89.9995812823774°)
2.66072505979886e+002	(3.6779222964481054e-05dB,89.9995764338558°)
2.69153480392697e+002	(3.720510629544837e-05dB,89.999571529191°)
2.72270130807797e+002	(3.763592112299952e-05dB,89.9995665677329°)
2.75422870333822e+002	(3.80717245511745e-05dB,89.9995615488237°)
2.78612116862983e+002	(3.851257434524781e-05dB,89.9995564717984°)
2.81838293126451e+002	(3.89585289393837e-05dB,89.9995513359839°)
2.85101826750397e+002	(3.9409647444382295e-05dB,89.9995461406994°)
2.88403150312666e+002	(3.986598965551396e-05dB,89.9995408852564°)
2.91742701400123e+002	(4.03276160604469e-05dB,89.9995355689582°)
2.95120922666645e+002	(4.079458784726292e-05dB,89.9995301911002°)
2.98538261891802e+002	(4.126696691256793e-05dB,89.9995247509695°)
3.01995172040208e+002	(4.17448158696984e-05dB,89.9995192478451°)
3.05492111321558e+002	(4.222819805701706e-05dB,89.9995136809975°)
3.09029543251365e+002	(4.2717177546312075e-05dB,89.9995080496888°)
3.12607936712402e+002	(4.321181915128713e-05dB,89.9995023531726°)
3.16227766016844e+002	(4.371218843615386e-05dB,89.999496590694°)
