Freq.	I(L1)/v(n001)
1.00000000000000e+001	(-1.17187721750370e+002dB,8.95854955602311e+001°)
1.01157945425990e+001	(-1.17087726923841e+002dB,8.95902398240545e+001°)
1.02329299228075e+001	(-1.16987731979555e+002dB,8.95949297820178e+001°)
1.03514216667934e+001	(-1.16887736920193e+002dB,8.95995660555183e+001°)
1.04712854805090e+001	(-1.16787741748373e+002dB,8.96041492588462e+001°)
1.05925372517729e+001	(-1.16687746466656e+002dB,8.96086799992654e+001°)
1.07151930523761e+001	(-1.16587751077543e+002dB,8.96131588770940e+001°)
1.08392691402120e+001	(-1.16487755583477e+002dB,8.96175864857833e+001°)
1.09647819614319e+001	(-1.16387759986849e+002dB,8.96219634119965e+001°)
1.10917481526240e+001	(-1.16287764289992e+002dB,8.96262902356860e+001°)
1.12201845430196e+001	(-1.16187768495187e+002dB,8.96305675301702e+001°)
1.13501081567232e+001	(-1.16087772604665e+002dB,8.96347958622091e+001°)
1.14815362149688e+001	(-1.15987776620603e+002dB,8.96389757920792e+001°)
1.16144861384034e+001	(-1.15887780545131e+002dB,8.96431078736477e+001°)
1.17489755493953e+001	(-1.15787784380329e+002dB,8.96471926544455e+001°)
1.18850222743702e+001	(-1.15687788128230e+002dB,8.96512306757397e+001°)
1.20226443461741e+001	(-1.15587791790822e+002dB,8.96552224726052e+001°)
1.21618600064637e+001	(-1.15487795370046e+002dB,8.96591685739954e+001°)
1.23026877081238e+001	(-1.15387798867800e+002dB,8.96630695028118e+001°)
1.24451461177139e+001	(-1.15287802285938e+002dB,8.96669257759736e+001°)
1.25892541179417e+001	(-1.15187805626273e+002dB,8.96707379044859e+001°)
1.27350308101666e+001	(-1.15087808890574e+002dB,8.96745063935072e+001°)
1.28824955169314e+001	(-1.14987812080573e+002dB,8.96782317424161e+001°)
1.30316677845230e+001	(-1.14887815197961e+002dB,8.96819144448775e+001°)
1.31825673855641e+001	(-1.14787818244391e+002dB,8.96855549889080e+001°)
1.33352143216333e+001	(-1.14687821221478e+002dB,8.96891538569400e+001°)
1.34896288259166e+001	(-1.14587824130800e+002dB,8.96927115258860e+001°)
1.36458313658893e+001	(-1.14487826973899e+002dB,8.96962284672014e+001°)
1.38038426460289e+001	(-1.14387829752284e+002dB,8.96997051469469e+001°)
1.39636836105594e+001	(-1.14287832467426e+002dB,8.97031420258501e+001°)
1.41253754462276e+001	(-1.14187835120766e+002dB,8.97065395593668e+001°)
1.42889395851111e+001	(-1.14087837713710e+002dB,8.97098981977406e+001°)
1.44543977074593e+001	(-1.13987840247633e+002dB,8.97132183860631e+001°)
1.46217717445672e+001	(-1.13887842723878e+002dB,8.97165005643324e+001°)
1.47910838816821e+001	(-1.13787845143758e+002dB,8.97197451675116e+001°)
1.49623565609444e+001	(-1.13687847508556e+002dB,8.97229526255859e+001°)
1.51356124843621e+001	(-1.13587849819527e+002dB,8.97261233636200e+001°)
1.53108746168203e+001	(-1.13487852077894e+002dB,8.97292578018141e+001°)
1.54881661891249e+001	(-1.13387854284855e+002dB,8.97323563555595e+001°)
1.56675107010815e+001	(-1.13287856441581e+002dB,8.97354194354937e+001°)
1.58489319246112e+001	(-1.13187858549215e+002dB,8.97384474475544e+001°)
1.60324539069005e+001	(-1.13087860608875e+002dB,8.97414407930337e+001°)
1.62181009735893e+001	(-1.12987862621651e+002dB,8.97443998686310e+001°)
1.64058977319954e+001	(-1.12887864588612e+002dB,8.97473250665052e+001°)
1.65958690743757e+001	(-1.12787866510801e+002dB,8.97502167743273e+001°)
1.67880401812257e+001	(-1.12687868389236e+002dB,8.97530753753310e+001°)
1.69824365246175e+001	(-1.12587870224913e+002dB,8.97559012483638e+001°)
1.71790838715759e+001	(-1.12487872018806e+002dB,8.97586947679371e+001°)
1.73780082874938e+001	(-1.12387873771865e+002dB,8.97614563042757e+001°)
1.75792361395870e+001	(-1.12287875485021e+002dB,8.97641862233669e+001°)
1.77827941003893e+001	(-1.12187877159181e+002dB,8.97668848870091e+001°)
1.79887091512879e+001	(-1.12087878795233e+002dB,8.97695526528591e+001°)
1.81970085860999e+001	(-1.11987880394044e+002dB,8.97721898744801e+001°)
1.84077200146896e+001	(-1.11887881956463e+002dB,8.97747969013884e+001°)
1.86208713666287e+001	(-1.11787883483317e+002dB,8.97773740790993e+001°)
1.88364908948981e+001	(-1.11687884975417e+002dB,8.97799217491732e+001°)
1.90546071796325e+001	(-1.11587886433552e+002dB,8.97824402492606e+001°)
1.92752491319094e+001	(-1.11487887858496e+002dB,8.97849299131472e+001°)
1.94984459975805e+001	(-1.11387889251006e+002dB,8.97873910707974e+001°)
1.97242273611486e+001	(-1.11287890611818e+002dB,8.97898240483988e+001°)
1.99526231496889e+001	(-1.11187891941655e+002dB,8.97922291684047e+001°)
2.01836636368157e+001	(-1.11087893241221e+002dB,8.97946067495773e+001°)
2.04173794466954e+001	(-1.10987894511206e+002dB,8.97969571070297e+001°)
2.06538015581054e+001	(-1.10887895752283e+002dB,8.97992805522674e+001°)
2.08929613085405e+001	(-1.10787896965109e+002dB,8.98015773932301e+001°)
2.11348903983666e+001	(-1.10687898150329e+002dB,8.98038479343320e+001°)
2.13796208950224e+001	(-1.10587899308570e+002dB,8.98060924765023e+001°)
2.16271852372703e+001	(-1.10487900440447e+002dB,8.98083113172251e+001°)
2.18776162394956e+001	(-1.10387901546559e+002dB,8.98105047505787e+001°)
2.21309470960565e+001	(-1.10287902627493e+002dB,8.98126730672745e+001°)
2.23872113856835e+001	(-1.10187903683822e+002dB,8.98148165546958e+001°)
2.26464430759307e+001	(-1.10087904716106e+002dB,8.98169354969353e+001°)
2.29086765276778e+001	(-1.09987905724893e+002dB,8.98190301748336e+001°)
2.31739464996849e+001	(-1.09887906710717e+002dB,8.98211008660153e+001°)
2.34422881531993e+001	(-1.09787907674102e+002dB,8.98231478449268e+001°)
2.37137370566167e+001	(-1.09687908615557e+002dB,8.98251713828719e+001°)
2.39883291901950e+001	(-1.09587909535582e+002dB,8.98271717480482e+001°)
2.42661009508243e+001	(-1.09487910434665e+002dB,8.98291492055824e+001°)
2.45470891568504e+001	(-1.09387911313282e+002dB,8.98311040175656e+001°)
2.48313310529558e+001	(-1.09287912171900e+002dB,8.98330364430876e+001°)
2.51188643150959e+001	(-1.09187913010973e+002dB,8.98349467382719e+001°)
2.54097270554932e+001	(-1.09087913830947e+002dB,8.98368351563090e+001°)
2.57039578276888e+001	(-1.08987914632256e+002dB,8.98387019474901e+001°)
2.60015956316529e+001	(-1.08887915415325e+002dB,8.98405473592406e+001°)
2.63026799189540e+001	(-1.08787916180569e+002dB,8.98423716361526e+001°)
2.66072505979882e+001	(-1.08687916928394e+002dB,8.98441750200170e+001°)
2.69153480392693e+001	(-1.08587917659196e+002dB,8.98459577498563e+001°)
2.72270130807793e+001	(-1.08487918373364e+002dB,8.98477200619554e+001°)
2.75422870333818e+001	(-1.08387919071275e+002dB,8.98494621898936e+001°)
2.78612116862979e+001	(-1.08287919753299e+002dB,8.98511843645751e+001°)
2.81838293126447e+001	(-1.08187920419799e+002dB,8.98528868142600e+001°)
2.85101826750393e+001	(-1.08087921071127e+002dB,8.98545697645939e+001°)
2.88403150312662e+001	(-1.07987921707630e+002dB,8.98562334386386e+001°)
2.91742701400118e+001	(-1.07887922329644e+002dB,8.98578780569009e+001°)
2.95120922666640e+001	(-1.07787922937499e+002dB,8.98595038373624e+001°)
2.98538261891798e+001	(-1.07687923531517e+002dB,8.98611109955081e+001°)
3.01995172040203e+001	(-1.07587924112014e+002dB,8.98626997443549e+001°)
3.05492111321553e+001	(-1.07487924679297e+002dB,8.98642702944799e+001°)
3.09029543251361e+001	(-1.07387925233667e+002dB,8.98658228540485e+001°)
3.12607936712397e+001	(-1.07287925775418e+002dB,8.98673576288415e+001°)
3.16227766016840e+001	(-1.07187926304838e+002dB,8.98688748222829e+001°)
3.19889510969142e+001	(-1.07087926822206e+002dB,8.98703746354666e+001°)
3.23593656929630e+001	(-1.06987927327797e+002dB,8.98718572671828e+001°)
3.27340694878840e+001	(-1.06887927821880e+002dB,8.98733229139449e+001°)
3.31131121482593e+001	(-1.06787928304715e+002dB,8.98747717700151e+001°)
3.34965439157830e+001	(-1.06687928776560e+002dB,8.98762040274303e+001°)
3.38844156139205e+001	(-1.06587929237665e+002dB,8.98776198760274e+001°)
3.42767786546453e+001	(-1.06487929688273e+002dB,8.98790195034687e+001°)
3.46736850452534e+001	(-1.06387930128624e+002dB,8.98804030952667e+001°)
3.50751873952570e+001	(-1.06287930558951e+002dB,8.98817708348084e+001°)
3.54813389233578e+001	(-1.06187930979483e+002dB,8.98831229033801e+001°)
3.58921934645008e+001	(-1.06087931390442e+002dB,8.98844594801909e+001°)
3.63078054770104e+001	(-1.05987931792046e+002dB,8.98857807423968e+001°)
3.67282300498087e+001	(-1.05887932184509e+002dB,8.98870868651240e+001°)
3.71535229097175e+001	(-1.05787932568038e+002dB,8.98883780214922e+001°)
3.75837404288447e+001	(-1.05687932942837e+002dB,8.98896543826377e+001°)
3.80189396320564e+001	(-1.05587933309103e+002dB,8.98909161177355e+001°)
3.84591782045356e+001	(-1.05487933667033e+002dB,8.98921633940224e+001°)
3.89045144994284e+001	(-1.05387934016815e+002dB,8.98933963768188e+001°)
3.93550075455780e+001	(-1.05287934358635e+002dB,8.98946152295507e+001°)
3.98107170553500e+001	(-1.05187934692673e+002dB,8.98958201137712e+001°)
4.02717034325462e+001	(-1.05087935019108e+002dB,8.98970111891821e+001°)
4.07380277804116e+001	(-1.04987935338112e+002dB,8.98981886136551e+001°)
4.12097519097333e+001	(-1.04887935649855e+002dB,8.98993525432526e+001°)
4.16869383470339e+001	(-1.04787935954501e+002dB,8.99005031322483e+001°)
4.21696503428586e+001	(-1.04687936252212e+002dB,8.99016405331477e+001°)
4.26579518801596e+001	(-1.04587936543147e+002dB,8.99027648967087e+001°)
4.31519076827769e+001	(-1.04487936827458e+002dB,8.99038763719608e+001°)
4.36515832240170e+001	(-1.04387937105298e+002dB,8.99049751062256e+001°)
4.41570447353316e+001	(-1.04287937376813e+002dB,8.99060612451358e+001°)
4.46683592150967e+001	(-1.04187937642147e+002dB,8.99071349326548e+001°)
4.51855944374926e+001	(-1.04087937901442e+002dB,8.99081963110959e+001°)
4.57088189614879e+001	(-1.03987938154834e+002dB,8.99092455211405e+001°)
4.62381021399264e+001	(-1.03887938402457e+002dB,8.99102827018575e+001°)
4.67735141287202e+001	(-1.03787938644444e+002dB,8.99113079907214e+001°)
4.73151258961485e+001	(-1.03687938880922e+002dB,8.99123215236305e+001°)
4.78630092322643e+001	(-1.03587939112017e+002dB,8.99133234349249e+001°)
4.84172367584104e+001	(-1.03487939337852e+002dB,8.99143138574045e+001°)
4.89778819368451e+001	(-1.03387939558545e+002dB,8.99152929223462e+001°)
4.95450190804795e+001	(-1.03287939774214e+002dB,8.99162607595218e+001°)
5.01187233627277e+001	(-1.03187939984974e+002dB,8.99172174972148e+001°)
5.06990708274709e+001	(-1.03087940190936e+002dB,8.99181632622377e+001°)
5.12861383991370e+001	(-1.02987940392210e+002dB,8.99190981799484e+001°)
5.18800038928966e+001	(-1.02887940588901e+002dB,8.99200223742674e+001°)
5.24807460249778e+001	(-1.02787940781115e+002dB,8.99209359676936e+001°)
5.30884444230993e+001	(-1.02687940968954e+002dB,8.99218390813211e+001°)
5.37031796370258e+001	(-1.02587941152516e+002dB,8.99227318348546e+001°)
5.43250331492439e+001	(-1.02487941331899e+002dB,8.99236143466261e+001°)
5.49540873857630e+001	(-1.02387941507199e+002dB,8.99244867336098e+001°)
5.55904257270409e+001	(-1.02287941678508e+002dB,8.99253491114381e+001°)
5.62341325190355e+001	(-1.02187941845917e+002dB,8.99262015944166e+001°)
5.68852930843847e+001	(-1.02087942009515e+002dB,8.99270442955394e+001°)
5.75439937337163e+001	(-1.01987942169388e+002dB,8.99278773265043e+001°)
5.82103217770877e+001	(-1.01887942325622e+002dB,8.99287007977273e+001°)
5.88843655355595e+001	(-1.01787942478300e+002dB,8.99295148183570e+001°)
5.95662143529017e+001	(-1.01687942627501e+002dB,8.99303194962899e+001°)
6.02559586074364e+001	(-1.01587942773305e+002dB,8.99311149381837e+001°)
6.09536897240175e+001	(-1.01487942915791e+002dB,8.99319012494722e+001°)
6.16595001861489e+001	(-1.01387943055032e+002dB,8.99326785343790e+001°)
6.23734835482426e+001	(-1.01287943191103e+002dB,8.99334468959312e+001°)
6.30957344480200e+001	(-1.01187943324077e+002dB,8.99342064359731e+001°)
6.38263486190555e+001	(-1.01087943454023e+002dB,8.99349572551799e+001°)
6.45654229034662e+001	(-1.00987943581010e+002dB,8.99356994530707e+001°)
6.53130552647479e+001	(-1.00887943705106e+002dB,8.99364331280223e+001°)
6.60693448007603e+001	(-1.00787943826377e+002dB,8.99371583772813e+001°)
6.68343917568622e+001	(-1.00687943944887e+002dB,8.99378752969779e+001°)
6.76082975391989e+001	(-1.00587944060699e+002dB,8.99385839821381e+001°)
6.83911647281437e+001	(-1.00487944173874e+002dB,8.99392845266965e+001°)
6.91830970918944e+001	(-1.00387944284472e+002dB,8.99399770235086e+001°)
6.99841996002281e+001	(-1.00287944392552e+002dB,8.99406615643634e+001°)
7.07945784384146e+001	(-1.00187944498171e+002dB,8.99413382399951e+001°)
7.16143410212910e+001	(-1.00087944601385e+002dB,8.99420071400957e+001°)
7.24435960074998e+001	(-9.99879447022487e+001dB,8.99426683533265e+001°)
7.32824533138912e+001	(-9.98879448008160e+001dB,8.99433219673297e+001°)
7.41310241300926e+001	(-9.97879448971388e+001dB,8.99439680687406e+001°)
7.49894209332465e+001	(-9.96879449912684e+001dB,8.99446067431985e+001°)
7.58577575029193e+001	(-9.95879450832545e+001dB,8.99452380753584e+001°)
7.67361489361828e+001	(-9.94879451731459e+001dB,8.99458621489021e+001°)
7.76247116628701e+001	(-9.93879452609903e+001dB,8.99464790465492e+001°)
7.85235634610081e+001	(-9.92879453468344e+001dB,8.99470888500683e+001°)
7.94328234724291e+001	(-9.91879454307235e+001dB,8.99476916402876e+001°)
8.03526122185627e+001	(-9.90879455127022e+001dB,8.99482874971059e+001°)
8.12830516164109e+001	(-9.89879455928139e+001dB,8.99488764995026e+001°)
8.22242649947081e+001	(-9.88879456711012e+001dB,8.99494587255490e+001°)
8.31763771102681e+001	(-9.87879457476055e+001dB,8.99500342524180e+001°)
8.41395141645205e+001	(-9.86879458223674e+001dB,8.99506031563947e+001°)
8.51138038202387e+001	(-9.85879458954265e+001dB,8.99511655128861e+001°)
8.60993752184611e+001	(-9.84879459668216e+001dB,8.99517213964315e+001°)
8.70963589956091e+001	(-9.83879460365904e+001dB,8.99522708807124e+001°)
8.81048873008025e+001	(-9.82879461047702e+001dB,8.99528140385618e+001°)
8.91250938133757e+001	(-9.81879461713968e+001dB,8.99533509419743e+001°)
9.01571137605968e+001	(-9.80879462365058e+001dB,8.99538816621155e+001°)
9.12010839355921e+001	(-9.79879463001316e+001dB,8.99544062693315e+001°)
9.22571427154775e+001	(-9.78879463623079e+001dB,8.99549248331580e+001°)
9.33254300797003e+001	(-9.77879464230678e+001dB,8.99554374223297e+001°)
9.44060876285936e+001	(-9.76879464824433e+001dB,8.99559441047895e+001°)
9.54992586021448e+001	(-9.75879465404661e+001dB,8.99564449476971e+001°)
9.66050878989826e+001	(-9.74879465971668e+001dB,8.99569400174386e+001°)
9.77237220955824e+001	(-9.73879466525756e+001dB,8.99574293796345e+001°)
9.88553094656952e+001	(-9.72879467067218e+001dB,8.99579130991490e+001°)
1.00000000000001e+002	(-9.71879467596342e+001dB,8.99583912400983e+001°)
1.01157945425991e+002	(-9.70879468113407e+001dB,8.99588638658593e+001°)
1.02329299228077e+002	(-9.69879468618688e+001dB,8.99593310390776e+001°)
1.03514216667936e+002	(-9.68879469112453e+001dB,8.99597928216764e+001°)
1.04712854805091e+002	(-9.67879469594963e+001dB,8.99602492748641e+001°)
1.05925372517730e+002	(-9.66879470066475e+001dB,8.99607004591430e+001°)
1.07151930523762e+002	(-9.65879470527239e+001dB,8.99611464343167e+001°)
1.08392691402122e+002	(-9.64879470977498e+001dB,8.99615872594987e+001°)
1.09647819614320e+002	(-9.63879471417492e+001dB,8.99620229931194e+001°)
1.10917481526242e+002	(-9.62879471847454e+001dB,8.99624536929349e+001°)
1.12201845430198e+002	(-9.61879472267612e+001dB,8.99628794160337e+001°)
1.13501081567233e+002	(-9.60879472678188e+001dB,8.99633002188447e+001°)
1.14815362149690e+002	(-9.59879473079400e+001dB,8.99637161571447e+001°)
1.16144861384036e+002	(-9.58879473471462e+001dB,8.99641272860658e+001°)
1.17489755493955e+002	(-9.57879473854580e+001dB,8.99645336601023e+001°)
1.18850222743704e+002	(-9.56879474228958e+001dB,8.99649353331186e+001°)
1.20226443461743e+002	(-9.55879474594795e+001dB,8.99653323583559e+001°)
1.21618600064639e+002	(-9.54879474952284e+001dB,8.99657247884392e+001°)
1.23026877081240e+002	(-9.53879475301615e+001dB,8.99661126753847e+001°)
1.24451461177140e+002	(-9.52879475642974e+001dB,8.99664960706061e+001°)
1.25892541179419e+002	(-9.51879475976541e+001dB,8.99668750249219e+001°)
1.27350308101668e+002	(-9.50879476302492e+001dB,8.99672495885619e+001°)
1.28824955169315e+002	(-9.49879476621002e+001dB,8.99676198111742e+001°)
1.30316677845232e+002	(-9.48879476932239e+001dB,8.99679857418310e+001°)
1.31825673855643e+002	(-9.47879477236367e+001dB,8.99683474290361e+001°)
1.33352143216334e+002	(-9.46879477533548e+001dB,8.99687049207306e+001°)
1.34896288259167e+002	(-9.45879477823941e+001dB,8.99690582642994e+001°)
1.36458313658895e+002	(-9.44879478107697e+001dB,8.99694075065778e+001°)
1.38038426460291e+002	(-9.43879478384969e+001dB,8.99697526938573e+001°)
1.39636836105596e+002	(-9.42879478655903e+001dB,8.99700938718921e+001°)
1.41253754462278e+002	(-9.41879478920642e+001dB,8.99704310859048e+001°)
1.42889395851113e+002	(-9.40879479179328e+001dB,8.99707643805927e+001°)
1.44543977074595e+002	(-9.39879479432096e+001dB,8.99710938001335e+001°)
1.46217717445674e+002	(-9.38879479679083e+001dB,8.99714193881915e+001°)
1.47910838816823e+002	(-9.37879479920417e+001dB,8.99717411879227e+001°)
1.49623565609446e+002	(-9.36879480156228e+001dB,8.99720592419813e+001°)
1.51356124843623e+002	(-9.35879480386639e+001dB,8.99723735925250e+001°)
1.53108746168206e+002	(-9.34879480611774e+001dB,8.99726842812206e+001°)
1.54881661891251e+002	(-9.33879480831752e+001dB,8.99729913492493e+001°)
1.56675107010818e+002	(-9.32879481046690e+001dB,8.99732948373128e+001°)
1.58489319246114e+002	(-9.31879481256700e+001dB,8.99735947856378e+001°)
1.60324539069007e+002	(-9.30879481461895e+001dB,8.99738912339822e+001°)
1.62181009735896e+002	(-9.29879481662384e+001dB,8.99741842216398e+001°)
1.64058977319957e+002	(-9.28879481858273e+001dB,8.99744737874457e+001°)
1.65958690743759e+002	(-9.27879482049665e+001dB,8.99747599697815e+001°)
1.67880401812259e+002	(-9.26879482236663e+001dB,8.99750428065804e+001°)
1.69824365246177e+002	(-9.25879482419364e+001dB,8.99753223353319e+001°)
1.71790838715762e+002	(-9.24879482597867e+001dB,8.99755985930873e+001°)
1.73780082874941e+002	(-9.23879482772266e+001dB,8.99758716164641e+001°)
1.75792361395872e+002	(-9.22879482942653e+001dB,8.99761414416513e+001°)
1.77827941003895e+002	(-9.21879483109118e+001dB,8.99764081044138e+001°)
1.79887091512882e+002	(-9.20879483271751e+001dB,8.99766716400975e+001°)
1.81970085861002e+002	(-9.19879483430636e+001dB,8.99769320836336e+001°)
1.84077200146899e+002	(-9.18879483585859e+001dB,8.99771894695437e+001°)
1.86208713666290e+002	(-9.17879483737502e+001dB,8.99774438319439e+001°)
1.88364908948983e+002	(-9.16879483885644e+001dB,8.99776952045497e+001°)
1.90546071796328e+002	(-9.15879484030365e+001dB,8.99779436206801e+001°)
1.92752491319097e+002	(-9.14879484171742e+001dB,8.99781891132625e+001°)
1.94984459975808e+002	(-9.13879484309849e+001dB,8.99784317148365e+001°)
1.97242273611489e+002	(-9.12879484444759e+001dB,8.99786714575587e+001°)
1.99526231496892e+002	(-9.11879484576544e+001dB,8.99789083732068e+001°)
2.01836636368160e+002	(-9.10879484705275e+001dB,8.99791424931835e+001°)
2.04173794466957e+002	(-9.09879484831018e+001dB,8.99793738485211e+001°)
2.06538015581057e+002	(-9.08879484953842e+001dB,8.99796024698857e+001°)
2.08929613085408e+002	(-9.07879485073810e+001dB,8.99798283875806e+001°)
2.11348903983668e+002	(-9.06879485190987e+001dB,8.99800516315510e+001°)
2.13796208950227e+002	(-9.05879485305434e+001dB,8.99802722313875e+001°)
2.16271852372706e+002	(-9.04879485417214e+001dB,8.99804902163305e+001°)
2.18776162394959e+002	(-9.03879485526383e+001dB,8.99807056152736e+001°)
2.21309470960568e+002	(-9.02879485633001e+001dB,8.99809184567675e+001°)
2.23872113856838e+002	(-9.01879485737125e+001dB,8.99811287690243e+001°)
2.26464430759310e+002	(-9.00879485838808e+001dB,8.99813365799206e+001°)
2.29086765276782e+002	(-8.99879485938106e+001dB,8.99815419170014e+001°)
2.31739464996852e+002	(-8.98879486035070e+001dB,8.99817448074839e+001°)
2.34422881531997e+002	(-8.97879486129753e+001dB,8.99819452782610e+001°)
2.37137370566170e+002	(-8.96879486222205e+001dB,8.99821433559050e+001°)
2.39883291901954e+002	(-8.95879486312473e+001dB,8.99823390666706e+001°)
