Freq.	V(n002)/I(V2)
1.00000000000000e+001	(0.1048172053466754dB,17.4403373245337°)
1.01157945425990e+001	(0.10492680849932617dB,17.629843390642°)
1.02329299228075e+001	(0.10503884624473347dB,17.8211393296029°)
1.03514216667934e+001	(0.10515337010850344dB,18.0142334358511°)
1.04712854805090e+001	(0.10527043259821037dB,18.209133756512°)
1.05925372517729e+001	(0.1053900872176378dB,18.4058480811046°)
1.07151930523761e+001	(0.10551238848106712dB,18.6043839310725°)
1.08392691402120e+001	(0.10563739192756406dB,18.8047485491486°)
1.09647819614319e+001	(0.10576515413529655dB,19.0069488885579°)
1.10917481526240e+001	(0.10589573273583883dB,19.210991602062°)
1.12201845430196e+001	(0.10602918642848193dB,19.4168830308534°)
1.13501081567232e+001	(0.10616557499451987dB,19.6246291933036°)
1.14815362149688e+001	(0.10630495931151326dB,19.8342357735727°)
1.16144861384034e+001	(0.10644740136752856dB,20.0457081100879°)
1.17489755493953e+001	(0.10659296427531734dB,20.2590511838981°)
1.18850222743702e+001	(0.10674171228645335dB,20.4742696069127°)
1.20226443461741e+001	(0.10689371080540218dB,20.6913676100348°)
1.21618600064637e+001	(0.10704902640351198dB,20.9103490311966°)
1.23026877081238e+001	(0.10720772683293109dB,21.131217303309°)
1.24451461177139e+001	(0.10736988104040632dB,21.3539754421341°)
1.25892541179417e+001	(0.10753555918100176dB,21.5786260340942°)
1.27350308101666e+001	(0.10770483263167195dB,21.8051712240275°)
1.28824955169314e+001	(0.10787777400472215dB,22.0336127029038°)
1.30316677845230e+001	(0.10805445716111761dB,22.2639516955142°)
1.31825673855641e+001	(0.10823495722364088dB,22.4961889481476°)
1.33352143216333e+001	(0.10841935058988031dB,22.7303247162698°)
1.34896288259166e+001	(0.10860771494504246dB,22.966358752219°)
1.36458313658893e+001	(0.10880012927457344dB,23.2042902929358°)
1.38038426460289e+001	(0.10899667387657512dB,23.4441180477421°)
1.39636836105594e+001	(0.10919743037400402dB,23.6858401861875°)
1.41253754462276e+001	(0.10940248172665278dB,23.9294543259809°)
1.42889395851111e+001	(0.10961191224287638dB,24.1749575210254°)
1.44543977074593e+001	(0.10982580759107732dB,24.4223462495759°)
1.46217717445672e+001	(0.11004425481092261dB,24.6716164025393°)
1.47910838816821e+001	(0.11026734232428256dB,24.9227632719376°)
1.49623565609444e+001	(0.11049515994588589dB,25.1757815395542°)
1.51356124843621e+001	(0.11072779889366814dB,25.4306652657858°)
1.53108746168203e+001	(0.11096535179881332dB,25.6874078787211°)
1.54881661891249e+001	(0.11120791271547092dB,25.9460021634689°)
1.56675107010815e+001	(0.11145557713013933dB,26.2064402517586°)
1.58489319246112e+001	(0.11170844197070046dB,26.4687136118362°)
1.60324539069005e+001	(0.1119666056151076dB,26.7328130386797°)
1.62181009735893e+001	(0.11223016789969752dB,26.998728644558°)
1.64058977319954e+001	(0.11249923012713904dB,27.2664498499561°)
1.65958690743757e+001	(0.1127738950739871dB,27.5359653748939°)
1.67880401812257e+001	(0.11305426699785284dB,27.8072632306606°)
1.69824365246175e+001	(0.11334045164416985dB,28.0803307119907°)
1.71790838715759e+001	(0.11363255625255016dB,28.3551543897063°)
1.73780082874938e+001	(0.11393068956273648dB,28.6317201038511°)
1.75792361395870e+001	(0.11423496182011472dB,28.9100129573397°)
1.77827941003893e+001	(0.11454548478082284dB,29.1900173101477°)
1.79887091512879e+001	(0.11486237171641497dB,29.4717167740673°)
1.81970085860999e+001	(0.11518573741809442dB,29.7550942080519°)
1.84077200146896e+001	(0.11551569820051169dB,30.0401317141736°)
1.86208713666287e+001	(0.11585237190512043dB,30.326810634218°)
1.88364908948981e+001	(0.11619587790309745dB,30.615111546938°)
1.90546071796325e+001	(0.11654633709781852dB,30.9050142659893°)
1.92752491319094e+001	(0.11690387192689665dB,31.1964978385699°)
1.94984459975805e+001	(0.11726860636378206dB,31.4895405447835°)
1.97242273611486e+001	(0.11764066591892217dB,31.7841198977472°)
1.99526231496889e+001	(0.1180201776405048dB,32.0802126444635°)
2.01836636368157e+001	(0.11840727011475684dB,32.3777947674735°)
2.04173794466954e+001	(0.11880207346583807dB,32.6768414873082°)
2.06538015581054e+001	(0.1192047193553179dB,32.9773272657555°)
2.08929613085405e+001	(0.11961534098124607dB,33.2792258099556°)
2.11348903983666e+001	(0.12003407307682776dB,33.5825100773386°)
2.13796208950224e+001	(0.12046105190872843dB,33.8871522814171°)
2.16271852372703e+001	(0.1208964152749891dB,34.1931238984423°)
2.18776162394956e+001	(0.12134030250259444dB,34.5003956749337°)
2.21309470960565e+001	(0.1217928544447005dB,34.8089376360895°)
2.23872113856835e+001	(0.12225421347752723dB,35.1187190950821°)
2.26464430759307e+001	(0.12272452349694703dB,35.429708663243°)
2.29086765276778e+001	(0.12320392991477105dB,35.7418742611387°)
2.31739464996849e+001	(0.12369257965477737dB,36.0551831305379°)
2.34422881531993e+001	(0.12419062114847051dB,36.369601847267°)
2.37137370566167e+001	(0.12469820433062373dB,36.6850963349502°)
2.39883291901950e+001	(0.1252154806345999dB,37.0016318796292°)
2.42661009508243e+001	(0.1257426029874999dB,37.3191731452527°)
2.45470891568504e+001	(0.1262797258051386dB,37.6376841900264°)
2.48313310529558e+001	(0.12682700498690117dB,37.9571284836113°)
2.51188643150959e+001	(0.12738459791047096dB,38.2774689251558°)
2.54097270554932e+001	(0.12795266342650372dB,38.5986678621451°)
2.57039578276888e+001	(0.1285313618532216dB,38.9206871100492°)
2.60015956316529e+001	(0.12912085497100956dB,39.2434879727495°)
2.63026799189540e+001	(0.12972130601700288dB,39.5670312637203°)
2.66072505979882e+001	(0.13033287967971857dB,39.891277327942°)
2.69153480392693e+001	(0.13095574209375846dB,40.216186064518°)
2.72270130807793e+001	(0.13159006083460514dB,40.5417169499675°)
2.75422870333818e+001	(0.13223600491355617dB,40.8678290621637°)
2.78612116862979e+001	(0.132893744772828dB,41.1944811048848°)
2.81838293126447e+001	(0.13356345228084962dB,41.5216314329446°)
2.85101826750393e+001	(0.13424530072778904dB,41.8492380778666°)
2.88403150312662e+001	(0.13493946482135277dB,42.177258774064°)
2.91742701400118e+001	(0.13564612068286944dB,42.5056509854887°)
2.95120922666640e+001	(0.1363654458437228dB,42.8343719327067°)
2.98538261891798e+001	(0.13709761924212432dB,43.1633786203617°)
3.01995172040203e+001	(0.13784282122030894dB,43.4926278649821°)
3.05492111321553e+001	(0.13860123352214507dB,43.8220763230891°)
3.09029543251361e+001	(0.13937303929120512dB,44.1516805195622°)
3.12607936712397e+001	(0.1401584230693437dB,44.4813968762153°)
3.16227766016840e+001	(0.1409575707957921dB,44.8111817405401°)
3.19889510969142e+001	(0.14177066980680353dB,45.1409914145682°)
3.23593656929630e+001	(0.14259790883590567dB,45.4707821838079°)
3.27340694878840e+001	(0.14343947801474347dB,45.8005103462063°)
3.31131121482593e+001	(0.1442955688745869dB,46.1301322410927°)
3.34965439157830e+001	(0.1451663743485007dB,46.4596042780536°)
3.38844156139205e+001	(0.14605208877422282dB,46.7888829656959°)
3.42767786546453e+001	(0.14695290789775395dB,47.1179249402491°)
3.46736850452534e+001	(0.14786902887771916dB,47.4466869939625°)
3.50751873952570e+001	(0.14880065029047537dB,47.7751261032528°)
3.54813389233578e+001	(0.149747972136046dB,48.1031994565556°)
3.58921934645008e+001	(0.15071119584484938dB,48.4308644818389°)
3.63078054770104e+001	(0.15169052428527782dB,48.7580788737366°)
3.67282300498087e+001	(0.15268616177213082dB,49.0848006202586°)
3.71535229097175e+001	(0.15369831407593074dB,49.4109880290394°)
3.75837404288447e+001	(0.15472718843311187dB,49.7365997530851°)
3.80189396320564e+001	(0.15577299355713067dB,50.061594815982°)
3.84591782045356e+001	(0.15683593965049786dB,50.3859326365311°)
3.89045144994284e+001	(0.15791623841772753dB,50.7095730527739°)
3.93550075455780e+001	(0.15901410307924654dB,51.0324763453776°)
3.98107170553500e+001	(0.1601297483862456dB,51.3546032603482°)
4.02717034325462e+001	(0.16126339063649128dB,51.6759150310437°)
4.07380277804116e+001	(0.16241524769111285dB,51.9963733994597°)
4.12097519097333e+001	(0.16358553899235798dB,52.3159406367632°)
4.16869383470339e+001	(0.1647744855823255dB,52.6345795630505°)
4.21696503428586e+001	(0.16598231012267367dB,52.9522535663099°)
4.26579518801596e+001	(0.167209236915325dB,53.268926620569°)
4.31519076827769e+001	(0.16845549192413403dB,53.5845633032103°)
4.36515832240170e+001	(0.1697213027975534dB,53.8991288114413°)
4.41570447353316e+001	(0.1710068988922662dB,54.212588977905°)
4.46683592150967e+001	(0.17231251129780764dB,54.5249102854212°)
4.51855944374926e+001	(0.17363837286214118dB,54.8360598808507°)
4.57088189614879e+001	(0.17498471821822464dB,55.1460055880748°)
4.62381021399264e+001	(0.17635178381151048dB,55.4547159200867°)
4.67735141287202e+001	(0.1777398079284201dB,55.7621600901925°)
4.73151258961485e+001	(0.17914903072575797dB,56.0683080223202°)
4.78630092322643e+001	(0.18057969426106088dB,56.3731303604401°)
4.84172367584104e+001	(0.18203204252386102dB,56.6765984770983°)
4.89778819368451e+001	(0.18350632146789703dB,56.9786844810693°)
4.95450190804795e+001	(0.18500277904420243dB,57.2793612241339°)
5.01187233627277e+001	(0.1865216652350899dB,57.5786023069918°)
5.06990708274709e+001	(0.18806323208903775dB,57.8763820843184°)
5.12861383991370e+001	(0.18962773375642536dB,58.1726756689773°)
5.18800038928966e+001	(0.19121542652613127dB,58.4674589354017°)
5.24807460249778e+001	(0.19282656886297378dB,58.7607085221595°)
5.30884444230993e+001	(0.1944614214459767dB,59.0524018337169°)
5.37031796370258e+001	(0.1961202472074604dB,59.3425170414185°)
5.43250331492439e+001	(0.19780331137292226dB,59.6310330837007°)
5.49540873857630e+001	(0.19951088150170077dB,59.9179296655583°)
5.55904257270409e+001	(0.20124322752843132dB,60.2031872572834°)
5.62341325190355e+001	(0.20300062180522732dB,60.4867870924984°)
5.68852930843847e+001	(0.20478333914463984dB,60.768711165504°)
5.75439937337163e+001	(0.20659165686331227dB,61.0489422279641°)
5.82103217770877e+001	(0.20842585482637283dB,61.3274637849512°)
5.88843655355595e+001	(0.21028621549251342dB,61.6042600903757°)
5.95662143529017e+001	(0.21217302395976323dB,61.8793161418215°)
6.02559586074364e+001	(0.21408656801192077dB,62.1526176748141°)
6.09536897240175e+001	(0.21602713816566488dB,62.4241511565441°)
6.16595001861489e+001	(0.21799502771828252dB,62.6939037790712°)
6.23734835482426e+001	(0.2199905327960579dB,62.9618634520338°)
6.30957344480200e+001	(0.22201395240327101dB,63.2280187948886°)
6.38263486190555e+001	(0.2240655884717807dB,63.4923591287056°)
6.45654229034662e+001	(0.2261457459112474dB,63.7548744675423°)
6.53130552647479e+001	(0.22825473265989896dB,64.0155555094232°)
6.60693448007603e+001	(0.23039285973589962dB,64.2743936269481°)
6.68343917568622e+001	(0.23256044128925674dB,64.5313808575536°)
6.76082975391989e+001	(0.2347577946543084dB,64.7865098934524°)
6.83911647281437e+001	(0.236985240402733dB,65.0397740712735°)
6.91830970918944e+001	(0.2392431023971054dB,65.2911673614265°)
6.99841996002281e+001	(0.2415317078449679dB,65.5406843572141°)
7.07945784384146e+001	(0.2438513873534484dB,65.7883202637137°)
7.16143410212910e+001	(0.24620247498434522dB,66.0340708864513°)
7.24435960074998e+001	(0.24858530830977218dB,66.2779326198883°)
7.32824533138912e+001	(0.2510002284682533dB,66.5199024357431°)
7.41310241300926e+001	(0.25344758022133823dB,66.7599778711672°)
7.49894209332465e+001	(0.25592771201071773dB,66.9981570167961°)
7.58577575029193e+001	(0.2584409760157833dB,67.2344385046934°)
7.67361489361828e+001	(0.26098772821170774dB,67.4688214962081°)
7.76247116628701e+001	(0.2635683284279909dB,67.7013056697616°)
7.85235634610081e+001	(0.26618314040747615dB,67.9318912085826°)
7.94328234724291e+001	(0.2688325318658377dB,68.1605787884071°)
8.03526122185627e+001	(0.27151687455155027dB,68.3873695651576°)
8.12830516164109e+001	(0.2742365443063332dB,68.6122651626196°)
8.22242649947081e+001	(0.27699192112604715dB,68.8352676601273°)
8.31763771102681e+001	(0.2797833892220751dB,69.0563795802752°)
8.41395141645205e+001	(0.2826113370831764dB,69.2756038766669°)
8.51138038202387e+001	(0.2854761575378076dB,69.4929439217153°)
8.60993752184611e+001	(0.28837824781692106dB,69.7084034945054°)
8.70963589956091e+001	(0.29131800961723664dB,69.9219867687317°)
8.81048873008025e+001	(0.29429584916500845dB,70.1336983007212°)
8.91250938133757e+001	(0.29731217728024323dB,70.3435430175512°)
9.01571137605968e+001	(0.3003674094414456dB,70.5515262052729°)
9.12010839355921e+001	(0.3034619658508195dB,70.7576534972488°)
9.22571427154775e+001	(0.3065962714999888dB,70.9619308626127°)
9.33254300797003e+001	(0.309770756236203dB,71.16436459486°)
9.44060876285936e+001	(0.3129858548290492dB,71.3649613005763°)
9.54992586021448e+001	(0.3162420070377037dB,71.5637278883092°)
9.66050878989826e+001	(0.3195396576786496dB,71.7606715575924°)
9.77237220955824e+001	(0.32287925669397016dB,71.9557997881246°)
9.88553094656952e+001	(0.326261259220145dB,72.1491203291109°)
1.00000000000001e+002	(0.32968612565739164dB,72.3406411887699°)
1.01157945425991e+002	(0.33315432173955783dB,72.5303706240122°)
1.02329299228077e+002	(0.3366663186045624dB,72.7183171302919°)
1.03514216667936e+002	(0.34022259286540457dB,72.9044894316372°)
1.04712854805091e+002	(0.34382362668174254dB,73.0888964708602°)
1.05925372517730e+002	(0.3474699078320515dB,73.2715473999516°)
1.07151930523762e+002	(0.3511619297863756dB,73.452451570659°)
1.08392691402122e+002	(0.35490019177967586dB,73.6316185252539°)
1.09647819614320e+002	(0.3586851988857896dB,73.8090579874864°)
1.10917481526242e+002	(0.36251746209200814dB,73.98477985373°)
1.12201845430198e+002	(0.366397498374286dB,74.1587941843175°)
1.13501081567233e+002	(0.3703258307730891dB,74.331111195067°)
1.14815362149690e+002	(0.3743029884698955dB,74.5017412490004°)
1.16144861384036e+002	(0.3783295068643565dB,74.6706948482525°)
1.17489755493955e+002	(0.3824059276521355dB,74.837982626171°)
1.18850222743704e+002	(0.386532798903428dB,75.0036153396085°)
1.20226443461743e+002	(0.3907106751421785dB,75.1676038614019°)
1.21618600064639e+002	(0.39494011742601254dB,75.3299591730428°)
1.23026877081240e+002	(0.39922169342687863dB,75.4906923575342°)
1.24451461177140e+002	(0.4035559775124351dB,75.6498145924344°)
1.25892541179419e+002	(0.4079435508281748dB,75.8073371430851°)
1.27350308101668e+002	(0.4123850013803094dB,75.9632713560227°)
1.28824955169315e+002	(0.4168809241194284dB,76.1176286525713°)
1.30316677845232e+002	(0.42143192102493787dB,76.2704205226147°)
1.31825673855643e+002	(0.426038601190299dB,76.421658518546°)
1.33352143216334e+002	(0.4307015809090759dB,76.5713542493915°)
1.34896288259167e+002	(0.4354214837618084dB,76.7195193751086°)
1.36458313658895e+002	(0.44019894070371995dB,76.8661656010527°)
1.38038426460291e+002	(0.4450345901532812dB,77.0113046726135°)
1.39636836105596e+002	(0.4499290780816332dB,77.154948370015°)
1.41253754462278e+002	(0.4548830581028955dB,77.2971085032795°)
1.42889395851113e+002	(0.45989719156536046dB,77.4377969073509°)
1.44543977074595e+002	(0.4649721476436021dB,77.5770254373756°)
1.46217717445674e+002	(0.47010860343150274dB,77.7148059641374°)
1.47910838816823e+002	(0.47530724403621777dB,77.8511503696449°)
1.49623565609446e+002	(0.4805687626730886dB,77.9860705428666°)
1.51356124843623e+002	(0.4858938607615263dB,78.1195783756128°)
1.53108746168206e+002	(0.49128324802187173dB,78.2516857585602°)
1.54881661891251e+002	(0.4967376425732548dB,78.3824045774157°)
1.56675107010818e+002	(0.5022577710324608dB,78.5117467092195°)
1.58489319246114e+002	(0.5078443686138274dB,78.6397240187796°)
1.60324539069007e+002	(0.5134981792301796dB,78.7663483552399°)
1.62181009735896e+002	(0.5192199555948245dB,78.8916315487753°)
1.64058977319957e+002	(0.5250104593246177dB,79.0155854074126°)
1.65958690743759e+002	(0.530870461044118dB,79.1382217139739°)
1.67880401812259e+002	(0.536800740490847dB,79.2595522231396°)
1.69824365246177e+002	(0.5428020866216702dB,79.379588658628°)
1.71790838715762e+002	(0.5488752977203128dB,79.4983427104887°)
1.73780082874941e+002	(0.5550211815060316dB,79.6158260325075°)
1.75792361395872e+002	(0.5612405552434507dB,79.7320502397184°)
1.77827941003895e+002	(0.5675342458535888dB,79.8470269060226°)
1.79887091512882e+002	(0.5739030900260881dB,79.9607675619086°)
1.81970085861002e+002	(0.5803479343326587dB,80.0732836922733°)
1.84077200146899e+002	(0.5868696353417608dB,80.18458673434°)
1.86208713666290e+002	(0.5934690597345466dB,80.2946880756713°)
1.88364908948983e+002	(0.6001470844220611dB,80.4035990522733°)
1.90546071796328e+002	(0.6069045966637403dB,80.5113309467906°)
1.92752491319097e+002	(0.6137424941872096dB,80.6178949867866°)
1.94984459975808e+002	(0.6206616853094074dB,80.7233023431098°)
1.97242273611489e+002	(0.6276630890590478dB,80.8275641283409°)
1.99526231496892e+002	(0.6347476353004445dB,80.9306913953203°)
2.01836636368160e+002	(0.6419162648587068dB,81.0326951357527°)
2.04173794466957e+002	(0.6491699296463344dB,81.1335862788859°)
2.06538015581057e+002	(0.6565095927912227dB,81.2333756902637°)
2.08929613085408e+002	(0.6639362287661019dB,81.3320741705481°)
2.11348903983668e+002	(0.671450823519426dB,81.4296924544098°)
2.13796208950227e+002	(0.6790543746077268dB,81.5262412094859°)
2.16271852372706e+002	(0.6867478913294616dB,81.6217310354°)
2.18776162394959e+002	(0.6945323948603649dB,81.7161724628459°)
2.21309470960568e+002	(0.7024089183903297dB,81.8095759527303°)
2.23872113856838e+002	(0.7103785072618287dB,81.9019518953741°)
2.26464430759310e+002	(0.7184422191099076dB,81.9933106097691°)
2.29086765276782e+002	(0.7266011240037605dB,82.0836623428901°)
2.31739464996852e+002	(0.7348563045899124dB,82.1730172690581°)
2.34422881531997e+002	(0.7432088562370234dB,82.2613854893555°)
2.37137370566170e+002	(0.7516598871823474dB,82.3487770310896°)
2.39883291901954e+002	(0.7602105186798486dB,82.4352018473029°)
2.42661009508246e+002	(0.7688618851500075dB,82.5206698163294°)
2.45470891568508e+002	(0.7776151343313448dB,82.6051907413961°)
2.48313310529562e+002	(0.7864714274336546dB,82.6887743502641°)
2.51188643150963e+002	(0.7954319392930134dB,82.7714302949134°)
2.54097270554935e+002	(0.804497858528541dB,82.8531681512658°)
2.57039578276891e+002	(0.8136703877009656dB,82.9339974189456°)
2.60015956316532e+002	(0.822950743473006dB,83.0139275210771°)
2.63026799189543e+002	(0.8323401567715861dB,83.092967804118°)
2.66072505979886e+002	(0.841839872951916dB,83.1711275377255°)
2.69153480392697e+002	(0.8514511519634526dB,83.2484159146555°)
2.72270130807797e+002	(0.8611752685177715dB,83.3248420506929°)
2.75422870333822e+002	(0.8710135122583622dB,83.4004149846126°)
2.78612116862983e+002	(0.8809671879323798dB,83.4751436781686°)
2.81838293126451e+002	(0.8910376155643774dB,83.5490370161113°)
2.85101826750397e+002	(0.901226130632025dB,83.6221038062312°)
2.88403150312666e+002	(0.9115340842438716dB,83.6943527794281°)
2.91742701400123e+002	(0.9219628433191379dB,83.7657925898049°)
2.95120922666645e+002	(0.9325137907695952dB,83.8364318147851°)
2.98538261891802e+002	(0.9431883256835367dB,83.9062789552522°)
3.01995172040208e+002	(0.9539878635118694dB,83.9753424357105°)
3.05492111321558e+002	(0.9649138362563612dB,84.0436306044678°)
3.09029543251365e+002	(0.9759676926600562dB,84.1111517338358°)
3.12607936712402e+002	(0.9871508983998919dB,84.1779140203508°)
3.16227766016844e+002	(0.9984649362815424dB,84.2439255850116°)
3.19889510969146e+002	(1.0099113064365146dB,84.3091944735347°)
3.23593656929635e+002	(1.0214915265215216dB,84.373728656626°)
3.27340694878845e+002	(1.0332071319201632dB,84.4375360302674°)
3.31131121482598e+002	(1.0450596759469415dB,84.5006244160188°)
3.34965439157835e+002	(1.0570507300536318dB,84.5630015613351°)
3.38844156139210e+002	(1.0691818840380523dB,84.6246751398932°)
3.42767786546458e+002	(1.081454746255239dB,84.6856527519363°)
3.46736850452539e+002	(1.0938709438310728dB,84.7459419246265°)
3.50751873952575e+002	(1.1064321228783833dB,84.8055501124108°)
3.54813389233583e+002	(1.1191399487155471dB,84.8644846973975°)
3.58921934645013e+002	(1.1319961060876271dB,84.9227529897424°)
3.63078054770109e+002	(1.1450022993900715dB,84.9803622280451°)
3.67282300498093e+002	(1.1581602528950012dB,85.0373195797543°)
3.71535229097181e+002	(1.1714717109801267dB,85.0936321415809°)
