Freq.	I(L1)/v(n001)
1.00000000000000e+001	(1.382336935907893e-06dB,-270.4145044397689°)
1.01157945425990e+001	(1.3983428103508054e-06dB,-270.4097601759455°)
1.02329299228075e+001	(1.4145340336181742e-06dB,-270.4050702179822°)
1.03514216667934e+001	(1.4309127518389926e-06dB,-270.40043394448173°)
1.04712854805090e+001	(1.4474811359948345e-06dB,-270.3958507411538°)
1.05925372517729e+001	(1.4642413822068519e-06dB,-270.3913200007346°)
1.07151930523761e+001	(1.4811957120276012e-06dB,-270.386841122906°)
1.08392691402120e+001	(1.4983463727353917e-06dB,-270.3824135142167°)
1.09647819614319e+001	(1.5156956376313516e-06dB,-270.3780365880035°)
1.10917481526240e+001	(1.533245806342018e-06dB,-270.373709764314°)
1.12201845430196e+001	(1.550999205123301e-06dB,-270.3694324698298°)
1.13501081567232e+001	(1.568958187168704e-06dB,-270.3652041377909°)
1.14815362149688e+001	(1.5871251329221494e-06dB,-270.3610242079208°)
1.16144861384034e+001	(1.6055024503924595e-06dB,-270.3568921263523°)
1.17489755493953e+001	(1.6240925754732745e-06dB,-270.3528073455545°)
1.18850222743702e+001	(1.6428979722656012e-06dB,-270.3487693242603°)
1.20226443461741e+001	(1.661921133404229e-06dB,-270.3447775273948°)
1.21618600064637e+001	(1.6811645803887065e-06dB,-270.34083142600457°)
1.23026877081238e+001	(1.7006308639170177e-06dB,-270.3369304971882°)
1.24451461177139e+001	(1.7203225642240376e-06dB,-270.3330742240264°)
1.25892541179417e+001	(1.7402422914231462e-06dB,-270.3292620955141°)
1.27350308101666e+001	(1.7603926858530087e-06dB,-270.3254936064928°)
1.28824955169314e+001	(1.7807764184263083e-06dB,-270.3217682575839°)
1.30316677845230e+001	(1.8013961909847624e-06dB,-270.3180855551225°)
1.31825673855641e+001	(1.822254736656853e-06dB,-270.314445011092°)
1.33352143216333e+001	(1.8433548202202354e-06dB,-270.31084614306°)
1.34896288259166e+001	(1.8646992384682183e-06dB,-270.307288474114°)
1.36458313658893e+001	(1.8862908205804179e-06dB,-270.3037715327986°)
1.38038426460289e+001	(1.9081324284972993e-06dB,-270.3002948530531°)
1.39636836105594e+001	(1.930226957300784e-06dB,-270.29685797414993°)
1.41253754462276e+001	(1.9525773355964063e-06dB,-270.2934604406332°)
1.42889395851111e+001	(1.9751865259027587e-06dB,-270.2901018022594°)
1.44543977074593e+001	(1.9980575250434773e-06dB,-270.2867816139369°)
1.46217717445672e+001	(2.0211933645448233e-06dB,-270.2834994356676°)
1.47910838816821e+001	(2.0445971110372268e-06dB,-270.28025483248837°)
1.49623565609444e+001	(2.068271866661942e-06dB,-270.2770473744141°)
1.51356124843621e+001	(2.092220769481888e-06dB,-270.27387663638°)
1.53108746168203e+001	(2.1164469938987196e-06dB,-270.27074219818587°)
1.54881661891249e+001	(2.1409537510721125e-06dB,-270.2676436444405°)
1.56675107010815e+001	(2.1657442893459485e-06dB,-270.26458056450633°)
1.58489319246112e+001	(2.190821894679343e-06dB,-270.2615525524456°)
1.60324539069005e+001	(2.216189891081572e-06dB,-270.2585592069663°)
1.62181009735893e+001	(2.2418516410536056e-06dB,-270.25560013136896°)
1.64058977319954e+001	(2.267810546032128e-06dB,-270.2526749334948°)
1.65958690743757e+001	(2.294070046841835e-06dB,-270.2497832256727°)
1.67880401812257e+001	(2.320633624151416e-06dB,-270.246924624669°)
1.69824365246175e+001	(2.347504798934246e-06dB,-270.2440987516362°)
1.71790838715759e+001	(2.374687132935253e-06dB,-270.2413052320629°)
1.73780082874938e+001	(2.4021842291436508e-06dB,-270.2385436957243°)
1.75792361395870e+001	(2.4299997322693475e-06dB,-270.2358137766331°)
1.77827941003893e+001	(2.458137329227511e-06dB,-270.2331151129909°)
1.79887091512879e+001	(2.486600749626039e-06dB,-270.2304473471409°)
1.81970085860999e+001	(2.5153937662605928e-06dB,-270.2278101255199°)
1.84077200146896e+001	(2.544520195613965e-06dB,-270.2252030986116°)
1.86208713666287e+001	(2.573983898363215e-06dB,-270.22262592090067°)
1.88364908948981e+001	(2.6037887798897946e-06dB,-270.2200782508268°)
1.90546071796325e+001	(2.633938790799104e-06dB,-270.2175597507394°)
1.92752491319094e+001	(2.6644379274421528e-06dB,-270.2150700868528°)
1.94984459975805e+001	(2.6952902324460124e-06dB,-270.2126089292026°)
1.97242273611486e+001	(2.7264997952510032e-06dB,-270.2101759516012°)
1.99526231496889e+001	(2.7580707526504062e-06dB,-270.2077708315953°)
2.01836636368157e+001	(2.7900072893407614e-06dB,-270.20539325042273°)
2.04173794466954e+001	(2.8223136384751137e-06dB,-270.2030428929703°)
2.06538015581054e+001	(2.8549940822251427e-06dB,-270.2007194477326°)
2.08929613085405e+001	(2.8880529523486294e-06dB,-270.1984226067699°)
2.11348903983666e+001	(2.9214946307623298e-06dB,-270.196152065668°)
2.13796208950224e+001	(2.955323550124979e-06dB,-270.1939075234977°)
2.16271852372703e+001	(2.989544194422875e-06dB,-270.1916886827749°)
2.18776162394956e+001	(3.0241610995657543e-06dB,-270.18949524942127°)
2.21309470960565e+001	(3.059178853986697e-06dB,-270.1873269327255°)
2.23872113856835e+001	(3.094602099251176e-06dB,-270.18518344530423°)
2.26464430759307e+001	(3.1304355306720093e-06dB,-270.1830645030647°)
2.29086765276778e+001	(3.166683897931458e-06dB,-270.1809698251664°)
2.31739464996849e+001	(3.203352005711661e-06dB,-270.1788991339847°)
2.34422881531993e+001	(3.2404447143301126e-06dB,-270.1768521550732°)
2.37137370566167e+001	(3.2779669403858076e-06dB,-270.1748286171281°)
2.39883291901950e+001	(3.315923657408868e-06dB,-270.1728282519518°)
2.42661009508243e+001	(3.3543198965209456e-06dB,-270.1708507944176°)
2.45470891568504e+001	(3.393160747102211e-06dB,-270.1688959824344°)
2.48313310529558e+001	(3.4324513574648943e-06dB,-270.1669635569124°)
2.51188643150959e+001	(3.4721969355373213e-06dB,-270.1650532617281°)
2.54097270554932e+001	(3.512402749552382e-06dB,-270.163164843691°)
2.57039578276888e+001	(3.5530741287474685e-06dB,-270.1612980525099°)
2.60015956316529e+001	(3.5942164640697797e-06dB,-270.1594526407594°)
2.63026799189540e+001	(3.6358352088913885e-06dB,-270.1576283638474°)
2.66072505979882e+001	(3.677935879731725e-06dB,-270.155824979983°)
2.69153480392693e+001	(3.720524056989328e-06dB,-270.1540422501437°)
2.72270130807793e+001	(3.7636053856803083e-06dB,-270.1522799380446°)
2.75422870333818e+001	(3.807185576188833e-06dB,-270.1505378101064°)
2.78612116862979e+001	(3.851270405021968e-06dB,-270.1488156354249°)
2.81838293126447e+001	(3.895865715575414e-06dB,-270.14711318574°)
2.85101826750393e+001	(3.9409774189099125e-06dB,-270.1454302354061°)
2.88403150312662e+001	(3.986611494532112e-06dB,-270.1437665613614°)
2.91742701400118e+001	(4.03277399118997e-06dB,-270.1421219430991°)
2.95120922666640e+001	(4.07947102767235e-06dB,-270.1404961626376°)
2.98538261891798e+001	(4.12670879362099e-06dB,-270.1388890044919°)
3.01995172040203e+001	(4.174493550350101e-06dB,-270.1373002556451°)
3.05492111321553e+001	(4.2228316316778065e-06dB,-270.13572970552013°)
3.09029543251361e+001	(4.271729444764323e-06dB,-270.1341771459515°)
3.12607936712397e+001	(4.3211934709617945e-06dB,-270.1326423711585°)
3.16227766016840e+001	(4.371230266672908e-06dB,-270.1311251777171°)
3.19889510969142e+001	(4.421846464221611e-06dB,-270.1296253645334°)
3.23593656929630e+001	(4.473048772729727e-06dB,-270.1281427328172°)
3.27340694878840e+001	(4.524843979007295e-06dB,-270.1266770860551°)
3.31131121482593e+001	(4.577238948453836e-06dB,-270.1252282299849°)
3.34965439157830e+001	(4.630240625964759e-06dB,-270.1237959725697°)
3.38844156139205e+001	(4.68385603685509e-06dB,-270.1223801239726°)
3.42767786546453e+001	(4.738092287790273e-06dB,-270.1209804965313°)
3.46736850452534e+001	(4.792956567726034e-06dB,-270.11959690473327°)
3.50751873952570e+001	(4.848456148863532e-06dB,-270.11822916519156°)
3.54813389233578e+001	(4.904598387611656e-06dB,-270.1168770966199°)
3.58921934645008e+001	(4.9613907255639e-06dB,-270.1155405198091°)
3.63078054770104e+001	(5.018840690483067e-06dB,-270.11421925760317°)
3.67282300498087e+001	(5.076955897299198e-06dB,-270.112913134876°)
3.71535229097175e+001	(5.135744049120609e-06dB,-270.1116219785078°)
3.75837404288447e+001	(5.195212938252801e-06dB,-270.1103456173623°)
3.80189396320564e+001	(5.2553704472336224e-06dB,-270.1090838822645°)
3.84591782045356e+001	(5.3162245498740576e-06dB,-270.1078366059776°)
3.89045144994284e+001	(5.377783312320588e-06dB,-270.1066036231812°)
3.93550075455780e+001	(5.440054894120135e-06dB,-270.1053847704493°)
3.98107170553500e+001	(5.503047549304234e-06dB,-270.1041798862288°)
4.02717034325462e+001	(5.566769627479891e-06dB,-270.1029888108179°)
4.07380277804116e+001	(5.631229574940251e-06dB,-270.10181138634493°)
4.12097519097333e+001	(5.696435935780954e-06dB,-270.1006474567474°)
4.16869383470339e+001	(5.762397353035364e-06dB,-270.09949686775167°)
4.21696503428586e+001	(5.829122569817589e-06dB,-270.0983594668523°)
4.26579518801596e+001	(5.896620430482057e-06dB,-270.09723510329127°)
4.31519076827769e+001	(5.964899881798641e-06dB,-270.0961236280392°)
4.36515832240170e+001	(6.033969974133117e-06dB,-270.0950248937744°)
4.41570447353316e+001	(6.1038398626523025e-06dB,-270.0939387548642°)
4.46683592150967e+001	(6.174518808534234e-06dB,-270.0928650673452°)
4.51855944374926e+001	(6.246016180195721e-06dB,-270.09180368890406°)
4.57088189614879e+001	(6.318341454536971e-06dB,-270.0907544788595°)
4.62381021399264e+001	(6.391504218195028e-06dB,-270.0897172981425°)
4.67735141287202e+001	(6.465514168813741e-06dB,-270.0886920092786°)
4.73151258961485e+001	(6.540381116332859e-06dB,-270.0876784763695°)
4.78630092322643e+001	(6.616114984284749e-06dB,-270.0866765650751°)
4.84172367584104e+001	(6.692725811111192e-06dB,-270.0856861425955°)
4.89778819368451e+001	(6.770223751495646e-06dB,-270.0847070776538°)
4.95450190804795e+001	(6.84861907770545e-06dB,-270.08373924047817°)
5.01187233627277e+001	(6.927922180955659e-06dB,-270.0827825027852°)
5.06990708274709e+001	(7.008143572787302e-06dB,-270.0818367377623°)
5.12861383991370e+001	(7.089293886458345e-06dB,-270.0809018200516°)
5.18800038928966e+001	(7.171383878356376e-06dB,-270.07997762573257°)
5.24807460249778e+001	(7.254424429419537e-06dB,-270.0790640323064°)
5.30884444230993e+001	(7.3384265465828004e-06dB,-270.0781609186789°)
5.37031796370258e+001	(7.4234013642371915e-06dB,-270.07726816514537°)
5.43250331492439e+001	(7.509360145702202e-06dB,-270.0763856533739°)
5.49540873857630e+001	(7.59631428472044e-06dB,-270.0755132663902°)
5.55904257270409e+001	(7.684275306969692e-06dB,-270.0746508885619°)
5.62341325190355e+001	(7.773254871588051e-06dB,-270.0737984055834°)
5.68852930843847e+001	(7.863264772720199e-06dB,-270.0729557044606°)
5.75439937337163e+001	(7.954316941081748e-06dB,-270.0721226734957°)
5.82103217770877e+001	(8.046423445537886e-06dB,-270.0712992022727°)
5.88843655355595e+001	(8.139596494705849e-06dB,-270.070485181643°)
5.95662143529017e+001	(8.233848438574207e-06dB,-270.0696805037101°)
6.02559586074364e+001	(8.32919177013526e-06dB,-270.06888506181633°)
6.09536897240175e+001	(8.425639127042702e-06dB,-270.0680987505278°)
6.16595001861489e+001	(8.52320329329167e-06dB,-270.06732146562103°)
6.23734835482426e+001	(8.621897200905649e-06dB,-270.0665531040688°)
6.30957344480200e+001	(8.721733931654346e-06dB,-270.0657935640269°)
6.38263486190555e+001	(8.822726718789766e-06dB,-270.0650427448201°)
6.45654229034662e+001	(8.924888948796433e-06dB,-270.0643005469293°)
6.53130552647479e+001	(9.028234163166583e-06dB,-270.0635668719777°)
6.60693448007603e+001	(9.132776060196271e-06dB,-270.0628416227187°)
6.68343917568622e+001	(9.238528496801018e-06dB,-270.0621247030221°)
6.76082975391989e+001	(9.345505490351604e-06dB,-270.0614160178619°)
6.83911647281437e+001	(9.453721220533103e-06dB,-270.0607154733035°)
6.91830970918944e+001	(9.56319003122337e-06dB,-270.0600229764914°)
6.99841996002281e+001	(9.673926432394328e-06dB,-270.0593384356366°)
7.07945784384146e+001	(9.785945102036366e-06dB,-270.0586617600049°)
7.16143410212910e+001	(9.899260888102853e-06dB,-270.0579928599043°)
7.24435960074998e+001	(1.0013888810478542e-05dB,-270.0573316466735°)
7.32824533138912e+001	(1.0129844062969913e-05dB,-270.05667803267033°)
7.41310241300926e+001	(1.0247142015320545e-05dB,-270.0560319312594°)
7.49894209332465e+001	(1.036579821524675e-05dB,-270.0553932568015°)
7.58577575029193e+001	(1.048582839049956e-05dB,-270.0547619246416°)
7.67361489361828e+001	(1.06072484509487e-05dB,-270.0541378510979°)
7.76247116628701e+001	(1.0730074490691656e-05dB,-270.0535209534508°)
7.85235634610081e+001	(1.0854322790186837e-05dB,-270.0529111499317°)
7.94328234724291e+001	(1.098000981841207e-05dB,-270.0523083597124°)
8.03526122185627e+001	(1.1107152235046664e-05dB,-270.05171250289413°)
8.12830516164109e+001	(1.1235766892680402e-05dB,-270.0511235004974°)
8.22242649947081e+001	(1.136587083904666e-05dB,-270.050541274451°)
8.31763771102681e+001	(1.1497481319282846e-05dB,-270.049965747582°)
8.41395141645205e+001	(1.1630615778215548e-05dB,-270.0493968436053°)
8.51138038202387e+001	(1.1765291862673147e-05dB,-270.0488344871139°)
8.60993752184611e+001	(1.190152742382478e-05dB,-270.0482786035685°)
8.70963589956091e+001	(1.2039340519546707e-05dB,-270.0477291192876°)
8.81048873008025e+001	(1.2178749416815184e-05dB,-270.04718596143823°)
8.91250938133757e+001	(1.2319772594129042e-05dB,-270.0466490580257°)
9.01571137605968e+001	(1.2462428743957353e-05dB,-270.0461183378845°)
9.12010839355921e+001	(1.2606736775218522e-05dB,-270.0455937306685°)
9.22571427154775e+001	(1.2752715815785824e-05dB,-270.045075166842°)
9.33254300797003e+001	(1.2900385215022886e-05dB,-270.0445625776703°)
9.44060876285936e+001	(1.3049764546349e-05dB,-270.0440558952105°)
9.54992586021448e+001	(1.3200873609832428e-05dB,-270.0435550523029°)
9.66050878989826e+001	(1.3353732434816244e-05dB,-270.04305998256143°)
9.77237220955824e+001	(1.3508361282571937e-05dB,-270.0425706203655°)
9.88553094656952e+001	(1.3664780648985992e-05dB,-270.042086900851°)
1.00000000000001e+002	(1.3823011267275939e-05dB,-270.0416087599017°)
1.01157945425991e+002	(1.3983074110739152e-05dB,-270.0411361341407°)
1.02329299228077e+002	(1.4144990395532076e-05dB,-270.0406689609224°)
1.03514216667936e+002	(1.4308781583483026e-05dB,-270.0402071783236°)
1.04712854805091e+002	(1.4474469384936688e-05dB,-270.0397507251359°)
1.05925372517730e+002	(1.4642075761631596e-05dB,-270.039299540857°)
1.07151930523762e+002	(1.4811622929611562e-05dB,-270.0388535656833°)
1.08392691402122e+002	(1.4983133362170344e-05dB,-270.0384127405013°)
1.09647819614320e+002	(1.5156629792829853e-05dB,-270.0379770068806°)
1.10917481526242e+002	(1.5332135218354185e-05dB,-270.0375463070651°)
1.12201845430198e+002	(1.5509672901797603e-05dB,-270.03712058396627°)
1.13501081567233e+002	(1.5689266375587856e-05dB,-270.03669978115533°)
1.14815362149690e+002	(1.5870939444645494e-05dB,-270.0362838428553°)
1.16144861384036e+002	(1.605471618953894e-05dB,-270.03587271393417°)
1.17489755493955e+002	(1.62406209696771e-05dB,-270.0354663398977°)
1.18850222743704e+002	(1.6428678426537153e-05dB,-270.0350646668814°)
1.20226443461743e+002	(1.6618913486931384e-05dB,-270.0346676416441°)
1.21618600064639e+002	(1.6811351366311296e-05dB,-270.0342752115608°)
1.23026877081240e+002	(1.7006017572109396e-05dB,-270.0338873246153°)
1.24451461177140e+002	(1.7202937907120427e-05dB,-270.0335039293939°)
1.25892541179419e+002	(1.740213847292182e-05dB,-270.03312497507807°)
1.27350308101668e+002	(1.760364567333312e-05dB,-270.0327504114381°)
1.28824955169315e+002	(1.7807486217915204e-05dB,-270.0323801888258°)
1.30316677845232e+002	(1.8013687125511825e-05dB,-270.032014258169°)
1.31825673855643e+002	(1.8222275727830256e-05dB,-270.0316525709639°)
1.33352143216334e+002	(1.843327967306389e-05dB,-270.0312950792694°)
1.34896288259167e+002	(1.864672692955696e-05dB,-270.0309417357006°)
1.36458313658895e+002	(1.8862645789512933e-05dB,-270.0305924934222°)
1.38038426460291e+002	(1.9081064872742444e-05dB,-270.0302473061427°)
1.39636836105596e+002	(1.930201313045888e-05dB,-270.0299061281079°)
1.41253754462278e+002	(1.9525519849114758e-05dB,-270.0295689140952°)
1.42889395851113e+002	(1.9751614654283404e-05dB,-270.0292356194073°)
1.44543977074595e+002	(1.9980327514587094e-05dB,-270.02890619986647°)
1.46217717445674e+002	(2.0211688745667246e-05dB,-270.0285806118085°)
1.47910838816823e+002	(2.044572901420538e-05dB,-270.0282588120773°)
1.49623565609446e+002	(2.0682479341985307e-05dB,-270.0279407580187°)
1.51356124843623e+002	(2.092197111000729e-05dB,-270.027626407475°)
1.53108746168206e+002	(2.11642360626456e-05dB,-270.0273157187794°)
1.54881661891251e+002	(2.140930631185774e-05dB,-270.0270086507507°)
1.56675107010818e+002	(2.1657214341439874e-05dB,-270.0267051626872°)
1.58489319246114e+002	(2.1907993011333564e-05dB,-270.02640521436217°)
1.60324539069007e+002	(2.216167556197985e-05dB,-270.0261087660178°)
1.62181009735896e+002	(2.2418295618726294e-05dB,-270.0258157783602°)
1.64058977319957e+002	(2.2677887196283785e-05dB,-270.02552621255427°)
1.65958690743759e+002	(2.2940484703235353e-05dB,-270.02524003021847°)
1.67880401812259e+002	(2.3206122946596047e-05dB,-270.0249571934196°)
1.69824365246177e+002	(2.3474837136428228e-05dB,-270.0246776646681°)
1.71790838715762e+002	(2.3746662890506466e-05dB,-270.0244014069127°)
1.73780082874941e+002	(2.402163623904065e-05dB,-270.02412838353587°)
1.75792361395872e+002	(2.42997936294508e-05dB,-270.0238585583487°)
1.77827941003895e+002	(2.458117193119818e-05dB,-270.0235918955862°)
1.79887091512882e+002	(2.4865808440671927e-05dB,-270.0233283599025°)
1.81970085861002e+002	(2.5153740886134125e-05dB,-270.0230679163664°)
1.84077200146899e+002	(2.5445007432718355e-05dB,-270.0228105304563°)
1.86208713666290e+002	(2.5739646687490672e-05dB,-270.0225561680561°)
1.88364908948983e+002	(2.6037697704565893e-05dB,-270.0223047954503°)
1.90546071796328e+002	(2.633919999028353e-05dB,-270.0220563793199°)
1.92752491319097e+002	(2.6644193508445607e-05dB,-270.0218108867375°)
1.94984459975808e+002	(2.695271868561325e-05dB,-270.0215682851635°)
1.97242273611489e+002	(2.7264816416465308e-05dB,-270.0213285424413°)
1.99526231496892e+002	(2.7580528069218294e-05dB,-270.0210916267932°)
2.01836636368160e+002	(2.7899895491110045e-05dB,-270.02085750681647°)
2.04173794466957e+002	(2.822296101394772e-05dB,-270.0206261514789°)
2.06538015581057e+002	(2.8549767459716472e-05dB,-270.0203975301143°)
2.08929613085408e+002	(2.888035814625793e-05dB,-270.0201716124194°)
2.11348903983668e+002	(2.921477689300986e-05dB,-270.019948368449°)
2.13796208950227e+002	(2.9553068026815853e-05dB,-270.0197277686125°)
2.16271852372706e+002	(2.9895276387799384e-05dB,-270.0195097836695°)
2.18776162394959e+002	(3.024144733530981e-05dB,-270.0192943847264°)
2.21309470960568e+002	(3.059162675393139e-05dB,-270.0190815432325°)
2.23872113856838e+002	(3.094586105956739e-05dB,-270.0188712309757°)
2.26464430759310e+002	(3.1304197205593e-05dB,-270.0186634200794°)
2.29086765276782e+002	(3.1666682689076316e-05dB,-270.0184580829986°)
2.31739464996852e+002	(3.203336555707713e-05dB,-270.0182551925161°)
2.34422881531997e+002	(3.240429441301268e-05dB,-270.018054721739°)
2.37137370566170e+002	(3.2779518423102115e-05dB,-270.017856644095°)
2.39883291901954e+002	(3.315908732288343e-05dB,-270.0176609333294°)
2.42661009508246e+002	(3.354305142380328e-05dB,-270.0174675635007°)
2.45470891568508e+002	(3.39314616198883e-05dB,-270.01727650897817°)
2.48313310529562e+002	(3.4324369394491136e-05dB,-270.0170877444376°)
2.51188643150963e+002	(3.47218268271126e-05dB,-270.0169012448586°)
2.54097270554935e+002	(3.512388660030641e-05dB,-270.0167169855208°)
2.57039578276891e+002	(3.5530602006660485e-05dB,-270.01653494200093°)
2.60015956316532e+002	(3.594202695586289e-05dB,-270.0163550901692°)
2.63026799189543e+002	(3.63582159818469e-05dB,-270.0161774061865°)
2.66072505979886e+002	(3.6779224250018004e-05dB,-270.0160018665011°)
2.69153480392697e+002	(3.7205107564567686e-05dB,-270.0158284478453°)
2.72270130807797e+002	(3.76359223758692e-05dB,-270.0156571272327°)
2.75422870333822e+002	(3.8071725787961105e-05dB,-270.0154878819551°)
2.78612116862983e+002	(3.851257556611501e-05dB,-270.01532068957897°)
2.81838293126451e+002	(3.89585301444932e-05dB,-270.0151555279434°)
